(1691555707.185896) vcan0 3AA#81ACB32B7C38A372
(1691555707.187517) vcan0 3DF#FB9C2AF9230E3636
(1691555707.189099) vcan0 365#74F2C98E62F32188
(1691555707.190665) vcan0 294#8AEB275092CC7EC4
(1691555707.192247) vcan0 13D#B9CBDB16E0050F1B
(1691555707.193869) vcan0 1EC#9B350A862B3DB260
(1691555707.195413) vcan0 1E0#05843149697E77AE
(1691555707.196997) vcan0 378#5AD7BAF803381999
(1691555707.198561) vcan0 2A1#DB71B4DA59938113
(1691555707.200174) vcan0 2B3#6E7F0036876B6005
(1691555707.201722) vcan0 2ED#2BB29E7A8337C5CB
(1691555707.203339) vcan0 3A7#49338799569BE116
(1691555707.204934) vcan0 18B#33BFEA4A2B4FF4F4
(1691555707.206489) vcan0 3B7#349D2640A14643F3
(1691555707.208041) vcan0 11D#CBAE6128B7FE670A
(1691555707.209593) vcan0 2DF#28C54AD057CBDF88
(1691555707.211183) vcan0 27B#20F74C5974C62267
(1691555707.212730) vcan0 1C9#895247DE2F429167
(1691555707.214326) vcan0 1EA#A088CC77CC8290B7
(1691555707.215928) vcan0 326#69FBD4AC79467E0A
(1691555707.217486) vcan0 2E4#FE89A2A775D826AE
(1691555707.219072) vcan0 106#D27CC5CE0BE420CA
(1691555707.220653) vcan0 25F#E37E14D896CF62D3
(1691555707.222192) vcan0 364#63E63A72D1942EC2
(1691555707.223757) vcan0 184#300538BD76976D32
(1691555707.369844) vcan0 250#7EC3007F7E
(1691555707.371412) vcan0 251#C3C300C083
(1691555707.372927) vcan0 252#C3C3007F0E
(1691555707.374438) vcan0 253#C3C3000383
(1691555707.375969) vcan0 254#7E7EFFFE7E
(1691555707.380932) vcan0 118#975A1FAD69
(1691555707.382474) vcan0 167#D9A09D1EA6
(1691555707.384006) vcan0 3B6#43A2F447A7
(1691555707.385493) vcan0 2F7#26EBBC529C
(1691555707.387006) vcan0 385#5FFED7C2B5
(1691555707.388518) vcan0 311#AA6FA495FB
(1691555707.390062) vcan0 353#A3890AA1C1
(1691555707.391582) vcan0 111#5F9CC6BE14
(1691555707.393121) vcan0 2AF#47213D7993
(1691555707.394647) vcan0 341#5A56F92380
(1691555707.396169) vcan0 274#C22BFCEC76
(1691555707.397686) vcan0 221#FCB05EEBDE
(1691555707.399195) vcan0 1E8#6FFBBA147F
(1691555707.400714) vcan0 237#E8F46B4EAB
(1691555707.402249) vcan0 335#86C20E9044
(1691555707.403764) vcan0 29D#9A5BFFB3B3
(1691555707.405264) vcan0 360#9DB8955FB2
(1691555707.406880) vcan0 10D#AAC9CDDC86
(1691555707.408410) vcan0 3E8#B8813CA7A4
(1691555707.409924) vcan0 2C2#F3D4EB043C
(1691555707.411442) vcan0 346#C484FBB418
(1691555707.412970) vcan0 36F#184D6AEDE3
(1691555707.414484) vcan0 2B4#785CA12064
(1691555707.416020) vcan0 3E2#8A7B87F789
(1691555707.417516) vcan0 205#BA3A859486
(1691555707.419067) vcan0 299#AE3BAA2A2BBAE2AB
(1691555707.435568) vcan0 3AA#28A071FF7F1C93A1
(1691555707.437089) vcan0 3DF#314BF78C2EE2A82E
(1691555707.438602) vcan0 365#417753F19F102AFF
(1691555707.440122) vcan0 294#19563600434CD38A
(1691555707.441648) vcan0 13D#12F3379ED2D75EA2
(1691555707.443141) vcan0 1EC#E5AC9F1DE2618FA6
(1691555707.444669) vcan0 1E0#DFB4871D150BEF4C
(1691555707.446197) vcan0 378#880584B26C1B5AF1
(1691555707.447739) vcan0 2A1#FFA4E031021602A8
(1691555707.449268) vcan0 2B3#696B0877C36B1FD8
(1691555707.450803) vcan0 2ED#177B8C45B4E66360
(1691555707.452341) vcan0 3A7#AEAE8123E7ADF2A8
(1691555707.453894) vcan0 18B#D9B861970533B87B
(1691555707.455398) vcan0 3B7#C4F43C0DF0CD6BEB
(1691555707.456944) vcan0 11D#C3ED10926F85A98F
(1691555707.458455) vcan0 2DF#93D4B437D1802B2A
(1691555707.459971) vcan0 27B#3579D3E8D499C9E3
(1691555707.461482) vcan0 1C9#9BA5729192DC02F8
(1691555707.462992) vcan0 1EA#372F40D731212F1F
(1691555707.464515) vcan0 326#410B91CE1EFC4744
(1691555707.466048) vcan0 2E4#44478D37461C8811
(1691555707.467621) vcan0 106#E6FADE9A628917E9
(1691555707.469137) vcan0 25F#C9EFE871D5CB4686
(1691555707.470669) vcan0 364#888C41FF5582D548
(1691555707.472185) vcan0 184#AC3D93CD084C52CA
(1691555707.685825) vcan0 3AA#421FC3BB88671EC1
(1691555707.687369) vcan0 3DF#4004442AFA072739
(1691555707.688840) vcan0 365#0A8839CED8654236
(1691555707.690326) vcan0 294#5E9BD45699C1D40A
(1691555707.691837) vcan0 13D#8B44C16952468862
(1691555707.693332) vcan0 1EC#A21FF1D004CFC602
(1691555707.694863) vcan0 1E0#ACF1D0A3B7A6DB00
(1691555707.696344) vcan0 378#AC7F5040E166A9BE
(1691555707.697833) vcan0 2A1#2D8EA384D8CC0F98
(1691555707.699320) vcan0 2B3#F0D2DBC9F3FAFAB8
(1691555707.700845) vcan0 2ED#A31935C78DFE963D
(1691555707.702306) vcan0 3A7#754F629BD773751A
(1691555707.703804) vcan0 18B#35830DF1D5E0A41A
(1691555707.705279) vcan0 3B7#32AA8FFDD7278384
(1691555707.706755) vcan0 11D#6F810D90AD46744C
(1691555707.708223) vcan0 2DF#1D4766AE254EF052
(1691555707.709689) vcan0 27B#789173D8891D4B9C
(1691555707.711174) vcan0 1C9#870BEBB2D1B0C186
(1691555707.712648) vcan0 1EA#0E19708B75F8CE45
(1691555707.714150) vcan0 326#05840B9717A791AF
(1691555707.715649) vcan0 2E4#8E21168F449687B3
(1691555707.717233) vcan0 106#DF3325246E89F65A
(1691555707.718888) vcan0 25F#12AB01D9AFE58FC2
(1691555707.720468) vcan0 364#38664E45B4366BA3
(1691555707.721991) vcan0 184#E9CCAC3452A2F245
(1691555707.881228) vcan0 118#80347AF3A3
(1691555707.882805) vcan0 167#75324BE802
(1691555707.884336) vcan0 3B6#DCC582A954
(1691555707.885861) vcan0 2F7#59364F0C8D
(1691555707.887388) vcan0 385#170BAD56FD
(1691555707.889006) vcan0 311#A82A8FA74D
(1691555707.890500) vcan0 353#4CBDF71499
(1691555707.892042) vcan0 111#7D9E8967C6
(1691555707.893735) vcan0 2AF#BCA6FAE249
(1691555707.895276) vcan0 341#9114FADD0F
(1691555707.896805) vcan0 274#1494455112
(1691555707.898317) vcan0 221#973BE33DA9
(1691555707.899858) vcan0 1E8#8A2FFEE3F6
(1691555707.901374) vcan0 237#1D7D670EC1
(1691555707.902901) vcan0 335#CED11A06E1
(1691555707.904453) vcan0 29D#DB32D9351D
(1691555707.905953) vcan0 360#1D4A958191
(1691555707.907496) vcan0 10D#561F397EE5
(1691555707.909012) vcan0 3E8#5887A60B54
(1691555707.910564) vcan0 2C2#BE6F3B5FF4
(1691555707.912085) vcan0 346#0566C2C5F8
(1691555707.913606) vcan0 36F#5DB2D06399
(1691555707.915107) vcan0 2B4#EDDA68DBE8
(1691555707.916622) vcan0 3E2#4E4EDBA209
(1691555707.918146) vcan0 205#BEC2689983
(1691555707.919654) vcan0 299#8E8EA2BBAE3A8EEE
(1691555707.935593) vcan0 3AA#91EB18C335E767FD
(1691555707.937094) vcan0 3DF#BCC551CCFA06D5AA
(1691555707.938634) vcan0 365#658EB7443B7BE637
(1691555707.940157) vcan0 294#F25FD6988784E07C
(1691555707.941657) vcan0 13D#EFD8316D2BC2108E
(1691555707.943169) vcan0 1EC#22AFC1B1F61DC06B
(1691555707.944677) vcan0 1E0#D97FD1767E5C8ED0
(1691555707.946188) vcan0 378#F1C1CCCB6DE31439
(1691555707.947701) vcan0 2A1#B97F6140CFC5630D
(1691555707.949230) vcan0 2B3#2107CE917EA37EAF
(1691555707.950738) vcan0 2ED#C7C616B5582D2EDC
(1691555707.952263) vcan0 3A7#02784AF0B7CA9298
(1691555707.953802) vcan0 18B#C309A8187EF6E61A
(1691555707.955313) vcan0 3B7#CFF87E9D854384BD
(1691555707.956835) vcan0 11D#988EA3C7EC962C36
(1691555707.958360) vcan0 2DF#F9F0CC013C7E3559
(1691555707.959885) vcan0 27B#7C941F4895938024
(1691555707.961401) vcan0 1C9#A7AEA674EDC8E470
(1691555707.962917) vcan0 1EA#C68BF9F6F9711DAB
(1691555707.964424) vcan0 326#0CFBD13A0D8A5D3C
(1691555707.966074) vcan0 2E4#F6FA0CFAEA47BE1A
(1691555707.967713) vcan0 106#794E0D86D610EF9F
(1691555707.969385) vcan0 25F#C57FC10CC2BE9EA8
(1691555707.971047) vcan0 364#1D34CA14C05F5A51
(1691555707.972695) vcan0 184#37EADFD7D52D47C0
(1691555708.185778) vcan0 3AA#8799F19A9045AA94
(1691555708.187343) vcan0 3DF#E6AFF5A49ABD3E72
(1691555708.188817) vcan0 365#47E43326DDCC2DE7
(1691555708.190318) vcan0 294#AE3290DC11DDB829
(1691555708.191716) vcan0 13D#B43A546E0F757152
(1691555708.193162) vcan0 1EC#B72F6E664ADF0C26
(1691555708.194584) vcan0 1E0#072F2D0AC21D68A9
(1691555708.195990) vcan0 378#20F26A0A30488BED
(1691555708.197380) vcan0 2A1#FFCEC4880B10E1EB
(1691555708.198809) vcan0 2B3#74CE42ECAA17E072
(1691555708.200203) vcan0 2ED#D985B1AE70F97B5E
(1691555708.201600) vcan0 3A7#DB9EBD78A885AC79
(1691555708.203016) vcan0 18B#A6BBE89E04EBE5FA
(1691555708.204447) vcan0 3B7#0511D166826AF5D0
(1691555708.205841) vcan0 11D#E76C8B6BC648FAAF
(1691555708.207246) vcan0 2DF#B5127A74A972D2D4
(1691555708.208644) vcan0 27B#81B83B4244117EBB
(1691555708.210053) vcan0 1C9#56D0139518BDED85
(1691555708.211444) vcan0 1EA#CC31678014E09FD4
(1691555708.212874) vcan0 326#8B21F229166A3700
(1691555708.214266) vcan0 2E4#ABF416A712B14CB9
(1691555708.215667) vcan0 106#D7DD6A3E33BAD0F2
(1691555708.217063) vcan0 25F#403159E72368C53C
(1691555708.218467) vcan0 364#694BB3049AB33A00
(1691555708.219872) vcan0 184#5A6EB2575071ED71
(1691555708.369874) vcan0 250#0000000000
(1691555708.371389) vcan0 251#0000000000
(1691555708.372791) vcan0 252#0000000000
(1691555708.374147) vcan0 253#0000000000
(1691555708.375531) vcan0 254#0000000000
(1691555708.380881) vcan0 118#C7246DB956
(1691555708.382257) vcan0 167#56D3F72799
(1691555708.383618) vcan0 3B6#A827A6F943
(1691555708.384992) vcan0 2F7#FF0571E9BD
(1691555708.386359) vcan0 385#CDD3A3988D
(1691555708.387735) vcan0 311#019BF9C328
(1691555708.389133) vcan0 353#0E9153A868
(1691555708.390497) vcan0 111#B42EC1AAC1
(1691555708.391894) vcan0 2AF#444D215F88
(1691555708.393268) vcan0 341#262B2AA137
(1691555708.394635) vcan0 274#45A64EEDED
(1691555708.396011) vcan0 221#3BF4928975
(1691555708.397406) vcan0 1E8#6A9DAB698C
(1691555708.398805) vcan0 237#85561D5F13
(1691555708.400179) vcan0 335#0E61FE78CC
(1691555708.401568) vcan0 29D#751C1E3EE1
(1691555708.402939) vcan0 360#11E8C1BDC0
(1691555708.404304) vcan0 10D#F328B14642
(1691555708.405677) vcan0 3E8#AB88D0170A
(1691555708.407076) vcan0 2C2#F86DD176E8
(1691555708.408444) vcan0 346#248D3C4916
(1691555708.409815) vcan0 36F#86526A5ACC
(1691555708.411179) vcan0 2B4#5B2812C7E4
(1691555708.412574) vcan0 3E2#6BD1A89AF0
(1691555708.413976) vcan0 205#9969AF2134
(1691555708.415286) vcan0 299#EE3BAA2BBAE3AEE3
(1691555708.435575) vcan0 3AA#3461E04D1E4B710C
(1691555708.437000) vcan0 3DF#C98BF46DB24411CC
(1691555708.438372) vcan0 365#CDB8AA5D8A15C3AD
(1691555708.439767) vcan0 294#DD097CEA676BDD78
(1691555708.441115) vcan0 13D#80DFA899FD4D10FA
(1691555708.442535) vcan0 1EC#5C26D622A4DC4B61
(1691555708.443942) vcan0 1E0#BC6AAC9996C5A9AE
(1691555708.445339) vcan0 378#E61507F7FFF92C43
(1691555708.446744) vcan0 2A1#31BE2085BCDC19F0
(1691555708.448135) vcan0 2B3#BD00895A9E4C94EC
(1691555708.449540) vcan0 2ED#A4A647C9B44E6DCD
(1691555708.450957) vcan0 3A7#430DBF6F2F08ED1E
(1691555708.452347) vcan0 18B#02306EFDE6F759A1
(1691555708.453741) vcan0 3B7#CFF9694597AB4140
(1691555708.455131) vcan0 11D#91899FCC57E05EAD
(1691555708.456522) vcan0 2DF#5241AA6D93B77442
(1691555708.457919) vcan0 27B#5CA7BDA36B837BF9
(1691555708.459343) vcan0 1C9#EF6727DCE208AD9D
(1691555708.460739) vcan0 1EA#D6E5146B3EAEF4DA
(1691555708.462143) vcan0 326#9DB6A13868CD7704
(1691555708.463564) vcan0 2E4#51759065575B4924
(1691555708.464967) vcan0 106#4D9FFBE34413E41B
(1691555708.466365) vcan0 25F#46B02601841870E4
(1691555708.467803) vcan0 364#C6F9BD26A97D7B89
(1691555708.469246) vcan0 184#E757A798791BA2AA
(1691555708.685761) vcan0 3AA#EC0235CBED69359C
(1691555708.687216) vcan0 3DF#78764119BB2F7422
(1691555708.688644) vcan0 365#1F979B31EA2F7CC7
(1691555708.690116) vcan0 294#8BD5DDC3705D4CFA
(1691555708.691550) vcan0 13D#A63766BDA1F458CD
(1691555708.692990) vcan0 1EC#0E1A6607B71A4F32
(1691555708.694443) vcan0 1E0#08B0DB03BAE1E84A
(1691555708.695906) vcan0 378#FE9A8B862E8B7E18
(1691555708.697343) vcan0 2A1#C9C9912F359ACB83
(1691555708.698792) vcan0 2B3#618A675442C2B105
(1691555708.700219) vcan0 2ED#ED22FC84512FAED9
(1691555708.701708) vcan0 3A7#563CFC5236DF90C6
(1691555708.703139) vcan0 18B#248ACB55993FFE3A
(1691555708.704587) vcan0 3B7#2EE014041037A5A9
(1691555708.706031) vcan0 11D#D4028D929D780F4E
(1691555708.707467) vcan0 2DF#6331BDA3AECF6434
(1691555708.708932) vcan0 27B#950C8A16B626CDBB
(1691555708.710383) vcan0 1C9#6AC7ED3DD426F333
(1691555708.711835) vcan0 1EA#19A729314113511E
(1691555708.713265) vcan0 326#1AEA8A0078C70E77
(1691555708.714695) vcan0 2E4#38CC5598B33B2F3E
(1691555708.716134) vcan0 106#1A4165BAA0FE2DED
(1691555708.717576) vcan0 25F#7D158E29B7172EE0
(1691555708.719041) vcan0 364#3535B03F51F803A6
(1691555708.720468) vcan0 184#A12676BEBE854835
(1691555708.881111) vcan0 118#D819C1135D
(1691555708.882623) vcan0 167#FF26308452
(1691555708.884059) vcan0 3B6#508ED33EED
(1691555708.885512) vcan0 2F7#4D122D4EF3
(1691555708.886920) vcan0 385#4648E0E577
(1691555708.888322) vcan0 311#1B0FA10F47
(1691555708.889724) vcan0 353#51FB2C68F9
(1691555708.891211) vcan0 111#A2A46DC268
(1691555708.892653) vcan0 2AF#76E0E79D7B
(1691555708.894058) vcan0 341#161512AE93
(1691555708.895455) vcan0 274#B691CD4DAF
(1691555708.896982) vcan0 221#F2573E5B50
(1691555708.898388) vcan0 1E8#13CC76443E
(1691555708.899792) vcan0 237#2492BA049A
(1691555708.901223) vcan0 335#8F19843264
(1691555708.902615) vcan0 29D#684FF446C8
(1691555708.904016) vcan0 360#B89139D67E
(1691555708.905446) vcan0 10D#87F1B56919
(1691555708.906845) vcan0 3E8#81E1BEDED1
(1691555708.908241) vcan0 2C2#547C6AB49F
(1691555708.909640) vcan0 346#1F39689C38
(1691555708.911031) vcan0 36F#59CD70DA58
(1691555708.912435) vcan0 2B4#9DCAEEEF86
(1691555708.913858) vcan0 3E2#25266141BC
(1691555708.915257) vcan0 205#37C09B3E4F
(1691555708.916755) vcan0 299#BB8AE2E8AEEB8BBB
(1691555708.935546) vcan0 3AA#69251A7E50E6D795
(1691555708.937114) vcan0 3DF#576600B835597DE0
(1691555708.938521) vcan0 365#B410D40FF0160283
(1691555708.939923) vcan0 294#57882547835C2BDB
(1691555708.941329) vcan0 13D#0E3F19C6FB741C52
(1691555708.942763) vcan0 1EC#61FF802EF83216E1
(1691555708.944156) vcan0 1E0#886E748B6291042F
(1691555708.945570) vcan0 378#99C8FFAE988910E4
(1691555708.946984) vcan0 2A1#6725522C9F7F1ED7
(1691555708.948390) vcan0 2B3#DBFEEC270222FC09
(1691555708.949810) vcan0 2ED#81200332A46F157C
(1691555708.951201) vcan0 3A7#86A4AAC96508F42E
(1691555708.952618) vcan0 18B#3A2F4492114FA5F3
(1691555708.954056) vcan0 3B7#A4FC2B40393D3B38
(1691555708.955515) vcan0 11D#30D901ECA53AE21C
(1691555708.956956) vcan0 2DF#4B6C393654C1EC98
(1691555708.958403) vcan0 27B#03931063A8EE086D
(1691555708.959842) vcan0 1C9#3554E3C346043039
(1691555708.961407) vcan0 1EA#E0F0F414E7C261C8
(1691555708.962986) vcan0 326#851F25419361326D
(1691555708.964533) vcan0 2E4#E8BBAC098CD130C0
(1691555708.966206) vcan0 106#FEB3553D06BF6E76
(1691555708.967917) vcan0 25F#A6824923184CD869
(1691555708.969611) vcan0 364#441AA1971E24F1A2
(1691555708.971488) vcan0 184#F9DCA73C2EB5ADEF
(1691555709.185606) vcan0 3AA#74E486C2FC0F0E4F
(1691555709.187265) vcan0 3DF#EE26B5F98520C012
(1691555709.188664) vcan0 365#C59E407882E1C0E8
(1691555709.190068) vcan0 294#6E762371F5E3F654
(1691555709.191447) vcan0 13D#E3B6B66B97DEB0A4
(1691555709.192836) vcan0 1EC#6B49C904D85DEC99
(1691555709.194242) vcan0 1E0#F2BE34E5A1113C34
(1691555709.195639) vcan0 378#B46634D9EC7DD04F
(1691555709.197038) vcan0 2A1#B4730AEEFDC12F5D
(1691555709.198443) vcan0 2B3#0A1D49A2105F17A4
(1691555709.199829) vcan0 2ED#8109844B07391633
(1691555709.201226) vcan0 3A7#3CA526256BC45732
(1691555709.202620) vcan0 18B#7031CB25050DBEC7
(1691555709.204026) vcan0 3B7#276BDE639EF7C572
(1691555709.205446) vcan0 11D#71F4193194CFA2D5
(1691555709.206855) vcan0 2DF#DD4DB5178797BBAE
(1691555709.208292) vcan0 27B#220C033B59ED7A94
(1691555709.209738) vcan0 1C9#E8D4CA1EE0F49F8C
(1691555709.211182) vcan0 1EA#229186D6F0E6ABD3
(1691555709.212668) vcan0 326#A163D4648420A349
(1691555709.214114) vcan0 2E4#BB4D6D9065E9F153
(1691555709.215552) vcan0 106#61FCEBD7C0D1FCE7
(1691555709.216982) vcan0 25F#42FF20523BC9C276
(1691555709.218419) vcan0 364#4F6028D1DF83B806
(1691555709.219863) vcan0 184#1AA4DDC0F61613AE
(1691555709.369726) vcan0 250#7E00C37E78
(1691555709.371329) vcan0 251#8300E7830C
(1691555709.372766) vcan0 252#0E00DB0E03
(1691555709.374188) vcan0 253#8300C3830C
(1691555709.375605) vcan0 254#7EFFC37E78
(1691555709.381073) vcan0 118#327D5D9A95
(1691555709.382439) vcan0 167#430291A97A
(1691555709.383816) vcan0 3B6#103E9CA487
(1691555709.385177) vcan0 2F7#CEF640FC52
(1691555709.386567) vcan0 385#34865925E3
(1691555709.387932) vcan0 311#6B6B0E72F8
(1691555709.389300) vcan0 353#26157385F2
(1691555709.390691) vcan0 111#4B6CFD958B
(1691555709.392071) vcan0 2AF#3BBE3F67C7
(1691555709.393420) vcan0 341#A0540BABE2
(1691555709.394840) vcan0 274#956C17FE67
(1691555709.396247) vcan0 221#BD904D9669
(1691555709.397655) vcan0 1E8#9F63721775
(1691555709.399088) vcan0 237#069F740886
(1691555709.400478) vcan0 335#C146B776E3
(1691555709.401890) vcan0 29D#2E20E54131
(1691555709.403314) vcan0 360#3A0BA84B3B
(1691555709.404717) vcan0 10D#86EA734E1D
(1691555709.406110) vcan0 3E8#E51988F9F8
(1691555709.407525) vcan0 2C2#06B316F268
(1691555709.408928) vcan0 346#874D0E74FA
(1691555709.410336) vcan0 36F#E8964B106B
(1691555709.411729) vcan0 2B4#D59635AE8A
(1691555709.413215) vcan0 3E2#45E84C1B9F
(1691555709.414601) vcan0 205#2B08F8452D
(1691555709.416008) vcan0 299#B8A8EBBAE0
(1691555709.435462) vcan0 3AA#744F5749C3C95D92
(1691555709.436874) vcan0 3DF#8A022E81413D627A
(1691555709.438296) vcan0 365#E23E12213F70F622
(1691555709.439695) vcan0 294#DE240EB633F6CD52
(1691555709.441092) vcan0 13D#381F5C2B16706B43
(1691555709.442509) vcan0 1EC#CD72505CD99897FC
(1691555709.443902) vcan0 1E0#06F1F0F9A0CA1D73
(1691555709.445311) vcan0 378#818F072DCC2670C8
(1691555709.446708) vcan0 2A1#8B6DB0BB01501110
(1691555709.448127) vcan0 2B3#79D3330F4319F1E1
(1691555709.449520) vcan0 2ED#257B99FB551A3D6C
(1691555709.450913) vcan0 3A7#212744270A588015
(1691555709.452342) vcan0 18B#37AB89455F8096F1
(1691555709.453773) vcan0 3B7#699E1F0D373470F2
(1691555709.455154) vcan0 11D#811B1B47963CBE55
(1691555709.456551) vcan0 2DF#254414422E631535
(1691555709.457990) vcan0 27B#27746722099A38BA
(1691555709.459380) vcan0 1C9#DBF563BEF21A692B
(1691555709.460785) vcan0 1EA#F652B546594EF9F9
(1691555709.462158) vcan0 326#A4463AFABC8A97F9
(1691555709.463561) vcan0 2E4#0FA3CE18089A91F6
(1691555709.464965) vcan0 106#47DC17AC940EA1D3
(1691555709.466370) vcan0 25F#F99AB02D9BE3BB7E
(1691555709.467821) vcan0 364#66047056BADBD88B
(1691555709.469283) vcan0 184#EBDE23184456F0B1
(1691555709.685879) vcan0 3AA#A8946E7068C41530
(1691555709.687419) vcan0 3DF#0104DFE7DE51889A
(1691555709.688864) vcan0 365#3F652DC377FC65A2
(1691555709.690300) vcan0 294#F8D0BDD7B9BC1B98
(1691555709.691679) vcan0 13D#67035D84B99DF2B4
(1691555709.693157) vcan0 1EC#58C6C759C38349E1
(1691555709.694515) vcan0 1E0#98CF336C11A1943B
(1691555709.695963) vcan0 378#25EFF5A022ED34CD
(1691555709.697356) vcan0 2A1#08718938C0E75766
(1691555709.698749) vcan0 2B3#ACA5A1BBBA996BEA
(1691555709.700162) vcan0 2ED#8364C2DB677295D1
(1691555709.701568) vcan0 3A7#076E3501BBCE7C32
(1691555709.703011) vcan0 18B#7E342130DEC49F61
(1691555709.704412) vcan0 3B7#48111C19289F1564
(1691555709.705894) vcan0 11D#98C5648AE82028DC
(1691555709.707261) vcan0 2DF#9B82B979AE984AE1
(1691555709.708641) vcan0 27B#901A60FF77B3BD3F
(1691555709.710064) vcan0 1C9#667AD7EAD738CF3B
(1691555709.711431) vcan0 1EA#AC5E66E25079110C
(1691555709.712928) vcan0 326#DACE0840B2E39664
(1691555709.714304) vcan0 2E4#57B84258D107D3D4
(1691555709.715682) vcan0 106#29296BDF0A4A1CF2
(1691555709.717134) vcan0 25F#17BBCA938FAFE694
(1691555709.718523) vcan0 364#1138019C6C4F7DD0
(1691555709.719931) vcan0 184#C33672A1DEE54E62
(1691555709.881187) vcan0 118#75A058F4BE
(1691555709.882718) vcan0 167#8C3CB326B5
(1691555709.884186) vcan0 3B6#662A75C188
(1691555709.885670) vcan0 2F7#1883219C54
(1691555709.887055) vcan0 385#725FB4233D
(1691555709.888434) vcan0 311#ACC914257A
(1691555709.889838) vcan0 353#B03629CDA1
(1691555709.891224) vcan0 111#4BCDBEF387
(1691555709.892529) vcan0 2AF#D74A87AC36
(1691555709.893898) vcan0 341#757FCED53D
(1691555709.895296) vcan0 274#6E2B107DEC
(1691555709.896647) vcan0 221#27B15F8836
(1691555709.898099) vcan0 1E8#66925840AB
(1691555709.899517) vcan0 237#4F1CB6073A
(1691555709.900899) vcan0 335#29085CBA71
(1691555709.902281) vcan0 29D#D9C8DCEA82
(1691555709.903676) vcan0 360#404F1740B6
(1691555709.905122) vcan0 10D#C56246750D
(1691555709.906533) vcan0 3E8#720DACDC82
(1691555709.907918) vcan0 2C2#052D1B0441
(1691555709.909272) vcan0 346#C8B7B31028
(1691555709.910633) vcan0 36F#AB0AA0181B
(1691555709.912053) vcan0 2B4#2E973817C3
(1691555709.913443) vcan0 3E2#1AAB65E007
(1691555709.914902) vcan0 205#4FEE063586
(1691555709.916304) vcan0 299#AE8BA8B8EE8EBBA3
(1691555709.935572) vcan0 3AA#88BAEF1AFB5F767F
(1691555709.937002) vcan0 3DF#C9CA47D382B11153
(1691555709.938395) vcan0 365#BE4DD29FD6B352DE
(1691555709.939739) vcan0 294#BBC661EDD73A0A4F
(1691555709.941144) vcan0 13D#8AEEEE69AF2E548B
(1691555709.942508) vcan0 1EC#7031EDF9BE81569E
(1691555709.943906) vcan0 1E0#5D67170BC1F4E21A
(1691555709.945283) vcan0 378#9A4D0FDA4F003E9F
(1691555709.946667) vcan0 2A1#6429E24638D529C8
(1691555709.948040) vcan0 2B3#0113CAEAAD422A11
(1691555709.949410) vcan0 2ED#ABED64681DB3954E
(1691555709.950799) vcan0 3A7#D37439DF9E7EC3CB
(1691555709.952177) vcan0 18B#2B6BB0718659FD7B
(1691555709.953511) vcan0 3B7#F17AB5D4040A336D
(1691555709.954919) vcan0 11D#3F009E5DC47001D7
(1691555709.956286) vcan0 2DF#5A2010A631825CF0
(1691555709.957675) vcan0 27B#1BB50CEBAA915360
(1691555709.959055) vcan0 1C9#DAE5B42D5A013819
(1691555709.960434) vcan0 1EA#0D96E79AA18B0740
(1691555709.961835) vcan0 326#2C2AC0E576CC711E
(1691555709.963213) vcan0 2E4#6EAED3DCC6FC4996
(1691555709.964542) vcan0 106#97D92B9CE8967691
(1691555709.965951) vcan0 25F#E35130676A872529
(1691555709.967321) vcan0 364#F6B7EA1BD2F4FEB4
(1691555709.968695) vcan0 184#C6C15743977EE354
(1691555710.185935) vcan0 3AA#C2FBE075D42B9A6D
(1691555710.187491) vcan0 3DF#BACAE104EAC0D214
(1691555710.188959) vcan0 365#85A20EBA6C48D3E6
(1691555710.190374) vcan0 294#A63842DCA5F3F0BB
(1691555710.191754) vcan0 13D#9BDAD2507E2D6F9B
(1691555710.193168) vcan0 1EC#A909ACE5C374176C
(1691555710.194535) vcan0 1E0#6450BE4DF99534E1
(1691555710.195923) vcan0 378#2C939DB063607692
(1691555710.197292) vcan0 2A1#8A5FBE5DEAFA5125
(1691555710.198638) vcan0 2B3#36A60D75D2FBFF61
(1691555710.200037) vcan0 2ED#78B4808C00D6C787
(1691555710.201370) vcan0 3A7#E733A2FA37ACD592
(1691555710.202726) vcan0 18B#2DAD2DA067025967
(1691555710.204123) vcan0 3B7#FDB39F074D3F0344
(1691555710.205477) vcan0 11D#F244B65AEFAC89E4
(1691555710.206916) vcan0 2DF#BCDB4CED3C7528ED
(1691555710.208237) vcan0 27B#095B2D0B4BC72725
(1691555710.209594) vcan0 1C9#D29BDB0977C67991
(1691555710.211017) vcan0 1EA#3A21EBF82E30A904
(1691555710.212358) vcan0 326#F6548E7845484656
(1691555710.213691) vcan0 2E4#3E7F83837B630045
(1691555710.215088) vcan0 106#485546026AA2DF2D
(1691555710.216408) vcan0 25F#E76A70953DFCEF12
(1691555710.217767) vcan0 364#ABEFF21B7F17CA66
(1691555710.219262) vcan0 184#FC64C55DAA820A91
(1691555710.369781) vcan0 250#0000000000
(1691555710.371384) vcan0 251#0000000000
(1691555710.372851) vcan0 252#0000000000
(1691555710.374307) vcan0 253#0000000000
(1691555710.375726) vcan0 254#0000000000
(1691555710.381103) vcan0 118#54F4852ED2
(1691555710.382481) vcan0 167#3508687313
(1691555710.383897) vcan0 3B6#229E3B95A8
(1691555710.385278) vcan0 2F7#0D5BE7A730
(1691555710.386653) vcan0 385#10490E13F1
(1691555710.388041) vcan0 311#54E00C1FCB
(1691555710.389409) vcan0 353#C8BCB4F4D2
(1691555710.390746) vcan0 111#72B3F2A72C
(1691555710.392185) vcan0 2AF#991C29FED0
(1691555710.393555) vcan0 341#A2BA38FDF7
(1691555710.394988) vcan0 274#10D7BE13ED
(1691555710.396324) vcan0 221#4DE2905571
(1691555710.397688) vcan0 1E8#EB84A3C35E
(1691555710.399082) vcan0 237#EC2A32B348
(1691555710.400434) vcan0 335#8005BA327A
(1691555710.401849) vcan0 29D#24529E836F
(1691555710.403203) vcan0 360#DEA1129ED0
(1691555710.404544) vcan0 10D#8616D69C68
(1691555710.405918) vcan0 3E8#BDB61C0366
(1691555710.407282) vcan0 2C2#CE921A0201
(1691555710.408608) vcan0 346#287B96F9DD
(1691555710.410019) vcan0 36F#5D1F52FABC
(1691555710.411374) vcan0 2B4#1A3BA2B598
(1691555710.412730) vcan0 3E2#2CD6E899C9
(1691555710.414171) vcan0 205#3E303F5391
(1691555710.415526) vcan0 299#A8AAE2A2A8AEEB8E
(1691555710.435670) vcan0 3AA#6A1F3FEA768947DE
(1691555710.437150) vcan0 3DF#4982C5D061977881
(1691555710.438586) vcan0 365#F7E1C96D5A73AC3E
(1691555710.440033) vcan0 294#7F0BAE5D357BBE3A
(1691555710.441465) vcan0 13D#55E0D8FA76FE60F4
(1691555710.442899) vcan0 1EC#240CA75EB027316C
(1691555710.444329) vcan0 1E0#4CE4195D224B8A69
(1691555710.445753) vcan0 378#A5C3F65210083F92
(1691555710.447186) vcan0 2A1#5913C8126D2EB371
(1691555710.448604) vcan0 2B3#ABE6F929DA0927F2
(1691555710.450016) vcan0 2ED#8C4C46DD4EA16E9E
(1691555710.451430) vcan0 3A7#4F5C7800A3D277C3
(1691555710.452857) vcan0 18B#37EA17D7E06E9554
(1691555710.454299) vcan0 3B7#70CBBCD44D70D199
(1691555710.455733) vcan0 11D#93F3EB145EAF5A18
(1691555710.457179) vcan0 2DF#7431C190B635E3AF
(1691555710.458631) vcan0 27B#5B1295FC9CA9E00A
(1691555710.460065) vcan0 1C9#4E6EB9BA1F868ADD
(1691555710.461504) vcan0 1EA#1F0BBD4E2B4844D4
(1691555710.462965) vcan0 326#DB3E99DF672F8765
(1691555710.464414) vcan0 2E4#DE03EF6CEEB330E7
(1691555710.465836) vcan0 106#E5C67E5BCA4C3EBD
(1691555710.467291) vcan0 25F#10191023962E3F4E
(1691555710.468748) vcan0 364#64D3E46CA4A2AEC0
(1691555710.470186) vcan0 184#3024F5F7C57FFC77
(1691555710.685790) vcan0 3AA#6C9DB0BD196CC87A
(1691555710.687382) vcan0 3DF#1E88D35B2DFE6A5F
(1691555710.688868) vcan0 365#040F04193A705323
(1691555710.690308) vcan0 294#E873504A38BAB133
(1691555710.691674) vcan0 13D#160242897057F34D
(1691555710.693083) vcan0 1EC#EF05931DE678860C
(1691555710.694430) vcan0 1E0#7799EF39DB0C63B7
(1691555710.695906) vcan0 378#2F416D5C3C7FBD65
(1691555710.697345) vcan0 2A1#D34EEB507B2746E0
(1691555710.698710) vcan0 2B3#25A5BB716E014163
(1691555710.700115) vcan0 2ED#DB62D3A60BAF1587
(1691555710.701633) vcan0 3A7#421633E684CA78F2
(1691555710.703043) vcan0 18B#1FD3D687DBB521CE
(1691555710.704404) vcan0 3B7#975DCDD66A3694EE
(1691555710.705809) vcan0 11D#A7BA48366FBE03EA
(1691555710.707256) vcan0 2DF#4810D8255458868E
(1691555710.708634) vcan0 27B#3F613C3845B43546
(1691555710.710053) vcan0 1C9#80413BFF793ADEAD
(1691555710.711427) vcan0 1EA#92DF87FC487B90A6
(1691555710.712849) vcan0 326#285F481ADF4461F1
(1691555710.714228) vcan0 2E4#6908CCDA41CA928B
(1691555710.715560) vcan0 106#30849F2ECF56E86D
(1691555710.716979) vcan0 25F#8F5CA7BB22259602
(1691555710.718435) vcan0 364#651B2C39C2426EBD
(1691555710.719760) vcan0 184#4D31BC567289CC1D
(1691555710.881301) vcan0 118#91B30F3405
(1691555710.882849) vcan0 167#D374B25BB4
(1691555710.884337) vcan0 3B6#AAAFC31CF1
(1691555710.885738) vcan0 2F7#B73E636E06
(1691555710.887117) vcan0 385#F90E2FB796
(1691555710.888441) vcan0 311#ADC4C11D4D
(1691555710.889788) vcan0 353#BD84F6DDE3
(1691555710.891269) vcan0 111#5B299C9384
(1691555710.892613) vcan0 2AF#F250B784D1
(1691555710.894007) vcan0 341#F2A5E119ED
(1691555710.895429) vcan0 274#A735EBEE8D
(1691555710.896839) vcan0 221#5F240D0566
(1691555710.898184) vcan0 1E8#879AD6ACB9
(1691555710.899521) vcan0 237#31094CE580
(1691555710.900924) vcan0 335#7D0F1524A6
(1691555710.902268) vcan0 29D#7EE4C7B9DD
(1691555710.903606) vcan0 360#445DCDAE78
(1691555710.905005) vcan0 10D#9375F06410
(1691555710.906375) vcan0 3E8#5F080126D4
(1691555710.907708) vcan0 2C2#EAF2F085A3
(1691555710.909094) vcan0 346#34AC31F47E
(1691555710.910504) vcan0 36F#37521A6A0A
(1691555710.911904) vcan0 2B4#FAB22D9550
(1691555710.913258) vcan0 3E2#CA6565F60D
(1691555710.914610) vcan0 205#DAD345BB1D
(1691555710.916124) vcan0 299#BB8EEEEE2B8BA2BB
(1691555710.935628) vcan0 3AA#8CFF0A0578C02619
(1691555710.937092) vcan0 3DF#7BA3B17406B6DAF8
(1691555710.938515) vcan0 365#3F040F4937A3CFBB
(1691555710.939920) vcan0 294#EBBE84B92F43D4BA
(1691555710.941318) vcan0 13D#4B28C227F5378332
(1691555710.942716) vcan0 1EC#26E63218E205A0C0
(1691555710.944120) vcan0 1E0#83F1C94A5DF25B59
(1691555710.945511) vcan0 378#A87E59D3DC6FAD26
(1691555710.946921) vcan0 2A1#F6A49D48E08112A9
(1691555710.948323) vcan0 2B3#3AA0B89ADDEEEB75
(1691555710.949723) vcan0 2ED#690270F8371D3491
(1691555710.951136) vcan0 3A7#B61858168B2A8B48
(1691555710.952537) vcan0 18B#FD95884FC65482DA
(1691555710.953969) vcan0 3B7#4A87FB338AA27F92
(1691555710.955357) vcan0 11D#13F5575DC9B4A525
(1691555710.956753) vcan0 2DF#685CDF2C293505A4
(1691555710.958165) vcan0 27B#47E7E6D77925B7F6
(1691555710.959559) vcan0 1C9#0A0CD2EF79832422
(1691555710.960966) vcan0 1EA#89D631C8088D151F
(1691555710.962368) vcan0 326#C20CF7DA207DD409
(1691555710.963757) vcan0 2E4#F742DC1E3D65AB65
(1691555710.965155) vcan0 106#A1224DBEFF9EB22E
(1691555710.966566) vcan0 25F#4248B0A7E91CEBF8
(1691555710.967938) vcan0 364#6C14830A97A0F6F9
(1691555710.969320) vcan0 184#42E2E7CCAF0746BD
(1691555711.185954) vcan0 3AA#236B31BB7E6297AD
(1691555711.187325) vcan0 3DF#CF49DCBC07D517CA
(1691555711.188706) vcan0 365#0A129F647DE9E684
(1691555711.190064) vcan0 294#8C285E55FC17414D
(1691555711.191415) vcan0 13D#E014A8C9076BEA5E
(1691555711.192917) vcan0 1EC#A37AF49D0AE77F81
(1691555711.194275) vcan0 1E0#816E6BA0754E1FC5
(1691555711.195648) vcan0 378#C477BED0A161F295
(1691555711.197089) vcan0 2A1#BCCBA548B0A11DF3
(1691555711.198449) vcan0 2B3#607FC31C71C4B94D
(1691555711.199884) vcan0 2ED#AE1B5C50E970EAB8
(1691555711.201675) vcan0 3A7#5F3158CB33B33EF1
(1691555711.203092) vcan0 18B#D7D8EFABFD5D1083
(1691555711.204440) vcan0 3B7#16B09E44259D8DE2
(1691555711.205816) vcan0 11D#0873FE67E6CC104D
(1691555711.207227) vcan0 2DF#3BC383FD925266AB
(1691555711.208605) vcan0 27B#047AA0C7656253ED
(1691555711.210047) vcan0 1C9#87123248FFFE0FB8
(1691555711.211480) vcan0 1EA#F8DB05FDB1210138
(1691555711.212882) vcan0 326#C11FC7410D0E5407
(1691555711.214233) vcan0 2E4#C14D4F3CED32E66C
(1691555711.215601) vcan0 106#554F26A3779F9721
(1691555711.217071) vcan0 25F#7C84572558A9DDBB
(1691555711.218582) vcan0 364#F21B5C88C6F26956
(1691555711.220011) vcan0 184#B2BA4B6A37013B42
(1691555711.369853) vcan0 250#FFC0FF7F1E
(1691555711.371397) vcan0 251#C0C0C3C030
(1691555711.372847) vcan0 252#FCC0FFCFC0
(1691555711.374213) vcan0 253#C0C0C3C330
(1691555711.375583) vcan0 254#C0FFC37E1E
(1691555711.380947) vcan0 118#9AA1E92B52
(1691555711.382345) vcan0 167#8935CB38B1
(1691555711.383734) vcan0 3B6#62B13E44ED
(1691555711.385107) vcan0 2F7#24111BE30E
(1691555711.386448) vcan0 385#70B575440A
(1691555711.387829) vcan0 311#9B5BC974AA
(1691555711.389238) vcan0 353#DDD17D5680
(1691555711.390580) vcan0 111#DEE6A28584
(1691555711.391992) vcan0 2AF#729289A3A5
(1691555711.393337) vcan0 341#AB0916F1DD
(1691555711.394676) vcan0 274#04E8C18E15
(1691555711.396073) vcan0 221#722A6F0053
(1691555711.397440) vcan0 1E8#2FFCD5E768
(1691555711.398773) vcan0 237#6450DECE70
(1691555711.400172) vcan0 335#2A6CBC0565
(1691555711.401520) vcan0 29D#0156072CF2
(1691555711.402913) vcan0 360#6B3787DA2B
(1691555711.404245) vcan0 10D#807E50D166
(1691555711.405585) vcan0 3E8#7E0EF9ECF1
(1691555711.407037) vcan0 2C2#A3068895C3
(1691555711.408372) vcan0 346#5FC0FEA064
(1691555711.409714) vcan0 36F#695A71191E
(1691555711.411099) vcan0 2B4#046C49677E
(1691555711.412443) vcan0 3E2#AA81C37329
(1691555711.413865) vcan0 205#EB5052A3AD
(1691555711.415216) vcan0 299#AE3BAA2A2BBAE2AB
(1691555711.435687) vcan0 3AA#9AD7FCF8F5ED81FB
(1691555711.437243) vcan0 3DF#9421F09A17DC6267
(1691555711.438795) vcan0 365#3C87474DF7F5AAE8
(1691555711.440364) vcan0 294#74C64795B6AA172E
(1691555711.441931) vcan0 13D#EBF4E6DB9732913E
(1691555711.443470) vcan0 1EC#6D2FF2A81D8F6D8C
(1691555711.445006) vcan0 1E0#08BB5B3AD723BE7D
(1691555711.446553) vcan0 378#E46B89A6AB9AB1DB
(1691555711.448111) vcan0 2A1#E4101CA2A6646716
(1691555711.449662) vcan0 2B3#44F66A856F18E941
(1691555711.451227) vcan0 2ED#0CFF83E1F3E9DBDC
(1691555711.452783) vcan0 3A7#F52CFB91533792C7
(1691555711.454312) vcan0 18B#2CCB7F14A0058B81
(1691555711.455867) vcan0 3B7#9521C6FDB248E846
(1691555711.457455) vcan0 11D#73F83AF4993922A9
(1691555711.459006) vcan0 2DF#D5733E0282389B59
(1691555711.460571) vcan0 27B#A1FF1003B295E00D
(1691555711.462149) vcan0 1C9#EF6A1E36E701A167
(1691555711.463706) vcan0 1EA#AC1B9ECAE7CE4DA8
(1691555711.465263) vcan0 326#FF54D4A1C62FF044
(1691555711.466818) vcan0 2E4#59F6E74702FC9052
(1691555711.468437) vcan0 106#4B0B25493EB603D7
(1691555711.470001) vcan0 25F#F4E116CF8370E2B4
(1691555711.471553) vcan0 364#D5A947A1B1F4184B
(1691555711.473318) vcan0 184#68963640FD60FE5E
(1691555711.685888) vcan0 3AA#5B4C5ADD73048804
(1691555711.687381) vcan0 3DF#6C34CD9E87E8F13F
(1691555711.688855) vcan0 365#CBC2D849F9755ED4
(1691555711.690312) vcan0 294#F8AD4C6747C68313
(1691555711.691661) vcan0 13D#4A411FE182544489
(1691555711.693002) vcan0 1EC#20F3D68A1BA3A0B9
(1691555711.694349) vcan0 1E0#933BF77C9FD15C6A
(1691555711.695664) vcan0 378#998260EEB74003E0
(1691555711.697079) vcan0 2A1#8099EC360B99E416
(1691555711.698399) vcan0 2B3#BC5190185B165EAA
(1691555711.699754) vcan0 2ED#EE6A192BD58D71EE
(1691555711.701181) vcan0 3A7#65026E42EF129408
(1691555711.702528) vcan0 18B#B346698E8BCECA16
(1691555711.703918) vcan0 3B7#A75B4EE5B4E02673
(1691555711.705262) vcan0 11D#D1215DD072FB9D1C
(1691555711.706608) vcan0 2DF#458B8F5AA366BAA2
(1691555711.708016) vcan0 27B#E504A815AF54C711
(1691555711.709351) vcan0 1C9#4FDD76A54831C12B
(1691555711.710677) vcan0 1EA#7A2756DBD587EB54
(1691555711.712105) vcan0 326#E94C51BFFDD44056
(1691555711.713440) vcan0 2E4#3ACE48D4D81C355D
(1691555711.714889) vcan0 106#C51FAFD5C6B9B86B
(1691555711.716247) vcan0 25F#071C885001D8E7B1
(1691555711.717578) vcan0 364#227A7BD3E95EB8D9
(1691555711.719134) vcan0 184#9309F21E2A831084
(1691555711.881212) vcan0 118#3F27278227
(1691555711.882758) vcan0 167#42E971B4A8
(1691555711.884207) vcan0 3B6#38D34FE1AD
(1691555711.885651) vcan0 2F7#B55F6561B8
(1691555711.886997) vcan0 385#4C4DFC58AF
(1691555711.888340) vcan0 311#78533FDB05
(1691555711.889683) vcan0 353#BB0F27A6CB
(1691555711.891073) vcan0 111#66EC42CF78
(1691555711.892418) vcan0 2AF#6B7BE3F878
(1691555711.893745) vcan0 341#A1F590D155
(1691555711.895139) vcan0 274#76B655DC77
(1691555711.896464) vcan0 221#C2ECF85275
(1691555711.897820) vcan0 1E8#7B677E7333
(1691555711.899210) vcan0 237#FEF26C4532
(1691555711.900528) vcan0 335#458BC96478
(1691555711.901958) vcan0 29D#A0A29AECD1
(1691555711.903279) vcan0 360#93CEB4464D
(1691555711.904624) vcan0 10D#007048AAAE
(1691555711.906012) vcan0 3E8#B2EBF9DAF5
(1691555711.907355) vcan0 2C2#2FF2A63C2D
(1691555711.908703) vcan0 346#A454BA75FC
(1691555711.910081) vcan0 36F#5955AC6FFF
(1691555711.911449) vcan0 2B4#82C46EAD57
(1691555711.912829) vcan0 3E2#73A89177D0
(1691555711.914239) vcan0 205#DC6CEBDC7C
(1691555711.915641) vcan0 299#8E8EA2BBAE3A8EEE
(1691555711.935791) vcan0 3AA#D918A714DCD2BC78
(1691555711.937226) vcan0 3DF#0569086D8A37168D
(1691555711.938640) vcan0 365#3F2AF1784A8A7EF9
(1691555711.940059) vcan0 294#6FB304789E531881
(1691555711.941512) vcan0 13D#C1B570E63A58E8EA
(1691555711.942904) vcan0 1EC#59330C6331A7ED45
(1691555711.944304) vcan0 1E0#85E0BE32D68E527F
(1691555711.945719) vcan0 378#FF501234E2C56A66
(1691555711.947117) vcan0 2A1#70772C913CE25C13
(1691555711.948512) vcan0 2B3#3F904712C4E664A0
(1691555711.949925) vcan0 2ED#52181121E5BC2D07
(1691555711.951340) vcan0 3A7#7D3AB44FA53742A7
(1691555711.952751) vcan0 18B#A11E9C14B96956CA
(1691555711.954143) vcan0 3B7#6CA0DACBF196D260
(1691555711.955564) vcan0 11D#2B8FAA1B40A229FF
(1691555711.956947) vcan0 2DF#39EDF57FEE24CADF
(1691555711.958358) vcan0 27B#D6BDE9F5642F28D2
(1691555711.959793) vcan0 1C9#30A0149B99A2C515
(1691555711.961198) vcan0 1EA#B32BC344F5974022
(1691555711.962601) vcan0 326#5E13D3E0AC3A240B
(1691555711.964011) vcan0 2E4#A7B95E5E67A921DB
(1691555711.965404) vcan0 106#B493DE00F6A6FF2C
(1691555711.966834) vcan0 25F#880C74E02F201811
(1691555711.968234) vcan0 364#158C4EF62F5AC73A
(1691555711.969618) vcan0 184#D32CB506C1F91A05
(1691555712.185901) vcan0 3AA#D3D6E08A91B29EA3
(1691555712.187438) vcan0 3DF#617AF7F7542BA1E7
(1691555712.189523) vcan0 365#1F437952E24C2C49
(1691555712.190989) vcan0 294#0A05428FD7D01588
(1691555712.192399) vcan0 13D#68F75B9E88E3615C
(1691555712.193840) vcan0 1EC#ED6CF1FB39FB2AE0
(1691555712.195325) vcan0 1E0#DF214569F2A27E3E
(1691555712.196903) vcan0 378#E16669D1633795EF
(1691555712.199305) vcan0 2A1#5A73DB7AFCD52DC1
(1691555712.201465) vcan0 2B3#0EAF4D961685B257
(1691555712.203265) vcan0 2ED#319C987B5EE00667
(1691555712.204730) vcan0 3A7#B818E96E98F77FD4
(1691555712.206161) vcan0 18B#5DB60C7D8A23F72E
(1691555712.207503) vcan0 3B7#B4C0441C0E7C871D
(1691555712.208916) vcan0 11D#A82144F9D492B9AB
(1691555712.210271) vcan0 2DF#60212BAC07C7F5F7
(1691555712.211610) vcan0 27B#2212B645920C7E48
(1691555712.213078) vcan0 1C9#6D59F7F8477B66B5
(1691555712.214471) vcan0 1EA#6C1A147265BCC619
(1691555712.215868) vcan0 326#9585B3D94D74A0A6
(1691555712.217285) vcan0 2E4#F39D53D4B0FC3078
(1691555712.218797) vcan0 106#CADA486D93357049
(1691555712.220278) vcan0 25F#EF1587184394E8D0
(1691555712.221628) vcan0 364#0E354E324068FC90
(1691555712.223075) vcan0 184#C90D514A32F2D09C
(1691555712.369748) vcan0 250#0000000000
(1691555712.371226) vcan0 251#0000000000
(1691555712.372627) vcan0 252#0000000000
(1691555712.374061) vcan0 253#0000000000
(1691555712.375418) vcan0 254#0000000000
(1691555712.380907) vcan0 118#93A908255B
(1691555712.382331) vcan0 167#D79CCE8AE1
(1691555712.383708) vcan0 3B6#9783B4D519
(1691555712.385114) vcan0 2F7#6C24D4159F
(1691555712.386499) vcan0 385#B3F00F1C4E
(1691555712.387916) vcan0 311#A776BDE7F8
(1691555712.389564) vcan0 353#02A5BACEA3
(1691555712.390997) vcan0 111#A53E166BE2
(1691555712.392368) vcan0 2AF#327E3F91FD
(1691555712.393798) vcan0 341#42EFBB3D59
(1691555712.395168) vcan0 274#69BEC5AEA1
(1691555712.396573) vcan0 221#5CF66857AA
(1691555712.398006) vcan0 1E8#C6235FFF4C
(1691555712.399373) vcan0 237#81067AD04F
(1691555712.400864) vcan0 335#C14B67101E
(1691555712.402335) vcan0 29D#1904DB7916
(1691555712.403671) vcan0 360#1954646EC5
(1691555712.405114) vcan0 10D#F3D6865064
(1691555712.406443) vcan0 3E8#B649DC1AA5
(1691555712.407905) vcan0 2C2#08B676E951
(1691555712.409296) vcan0 346#4C2D4BD953
(1691555712.410646) vcan0 36F#7677628C93
(1691555712.412064) vcan0 2B4#816575F471
(1691555712.413458) vcan0 3E2#09F9CBFE7A
(1691555712.414869) vcan0 205#B0262C1ADD
(1691555712.416253) vcan0 299#EE3BAA2BBAE3AEE3
(1691555712.435694) vcan0 3AA#824594052FCE60CD
(1691555712.437239) vcan0 3DF#00D70C97096371A1
(1691555712.438799) vcan0 365#58DD3E7B4556B850
(1691555712.440358) vcan0 294#6F7B9FB3D11D9F05
(1691555712.441913) vcan0 13D#634340B622534254
(1691555712.443478) vcan0 1EC#C190BB6E4086DBAD
(1691555712.445038) vcan0 1E0#CA2A6F2660AE83E5
(1691555712.446594) vcan0 378#C4D8D7E483F04F19
(1691555712.448142) vcan0 2A1#B6722C8686DC5DC0
(1691555712.449697) vcan0 2B3#FAEA5F3322BAB9A1
(1691555712.451253) vcan0 2ED#BF2EBBE6B1ACB3AA
(1691555712.452827) vcan0 3A7#18C0735BBFB0C5D7
(1691555712.454373) vcan0 18B#A28358B6D00B2B5E
(1691555712.455934) vcan0 3B7#07ABD9FDC2E0D86D
(1691555712.457469) vcan0 11D#375265C2B222BEE2
(1691555712.459012) vcan0 2DF#A52E9BA104BD7987
(1691555712.460567) vcan0 27B#7CA8A6C2E15F0A07
(1691555712.462177) vcan0 1C9#DFB1F8D0B6E0000B
(1691555712.463761) vcan0 1EA#87AD0D676BB467AC
(1691555712.465306) vcan0 326#B900B7ABE1BEBC7A
(1691555712.466895) vcan0 2E4#CE1BA283361FA98E
(1691555712.468443) vcan0 106#5995FC1E0204FFA7
(1691555712.470012) vcan0 25F#B4E197C4EB273DA4
(1691555712.471590) vcan0 364#ACCC824E5E15101D
(1691555712.473151) vcan0 184#8852080161B8C92B
(1691555712.686039) vcan0 3AA#014CA6FAFA6A0CDC
(1691555712.687618) vcan0 3DF#2334B1CD28CF9A89
(1691555712.689093) vcan0 365#00A1703B55BD53C5
(1691555712.690503) vcan0 294#CEADB30663E471C3
(1691555712.691912) vcan0 13D#A09CD7241353D4B1
(1691555712.693257) vcan0 1EC#DE15B088AA9A9BA7
(1691555712.694606) vcan0 1E0#CA83DD53B5702DE2
(1691555712.695958) vcan0 378#4B3E58FF0E6772AF
(1691555712.697351) vcan0 2A1#34297C1CCFD898E6
(1691555712.698674) vcan0 2B3#A49103308CC06628
(1691555712.700118) vcan0 2ED#7BA1F38B120DB7FD
(1691555712.701640) vcan0 3A7#6DC7E21C4DF56967
(1691555712.703175) vcan0 18B#065048CC89584F87
(1691555712.704514) vcan0 3B7#E77413E01D553EF4
(1691555712.705924) vcan0 11D#978C694358EFA297
(1691555712.707300) vcan0 2DF#7F104CFE6AC40E92
(1691555712.708637) vcan0 27B#7AFA81E020052DA7
(1691555712.710081) vcan0 1C9#7DDD3F5FBEFEB1B4
(1691555712.711499) vcan0 1EA#A3A189CD6564B0F2
(1691555712.712922) vcan0 326#D0E2E81800787984
(1691555712.714304) vcan0 2E4#9BCAB33293DA35AC
(1691555712.715729) vcan0 106#A4CB2A8F816E11D2
(1691555712.717128) vcan0 25F#6D328589A076A511
(1691555712.718475) vcan0 364#376EBB286F5C3236
(1691555712.719863) vcan0 184#BBBBD690B08EC968
(1691555712.881155) vcan0 118#E6B8F493B3
(1691555712.882676) vcan0 167#BEA896A06D
(1691555712.884168) vcan0 3B6#D834B93F43
(1691555712.885588) vcan0 2F7#88EEBC12AA
(1691555712.886954) vcan0 385#8E8E730702
(1691555712.888290) vcan0 311#64C2D67298
(1691555712.889703) vcan0 353#E8270EF694
(1691555712.891117) vcan0 111#9F22855679
(1691555712.892498) vcan0 2AF#4651E70A96
(1691555712.894059) vcan0 341#4CF483E33A
(1691555712.895563) vcan0 274#BADCFE0F64
(1691555712.896986) vcan0 221#B68A5B73B2
(1691555712.898376) vcan0 1E8#54BDE59E48
(1691555712.899694) vcan0 237#7046CDF8B0
(1691555712.901132) vcan0 335#61845A07FF
(1691555712.902564) vcan0 29D#48B26DED66
(1691555712.904028) vcan0 360#8C66F58CC0
(1691555712.905416) vcan0 10D#85C799B213
(1691555712.906742) vcan0 3E8#62419F8705
(1691555712.908186) vcan0 2C2#E243D84B0B
(1691555712.909581) vcan0 346#38404AF8B0
(1691555712.910999) vcan0 36F#5B27841AE7
(1691555712.912377) vcan0 2B4#1E84C7B4F8
(1691555712.913851) vcan0 3E2#3C260DF186
(1691555712.915263) vcan0 205#B9D2EAC7F1
(1691555712.916652) vcan0 299#BB8AE2E8AEEB8BBB
(1691555712.935698) vcan0 3AA#564CF290E21E02A3
(1691555712.937268) vcan0 3DF#1CA2FD57DDE8DBFB
(1691555712.938853) vcan0 365#6EBF804D795DC8C5
(1691555712.940416) vcan0 294#A1D5C625F70528C0
(1691555712.941981) vcan0 13D#8282E7B616CCDB69
(1691555712.943524) vcan0 1EC#14827F1C89794A4A
(1691555712.945097) vcan0 1E0#1A41899ABD98206B
(1691555712.946660) vcan0 378#FFE22BA8CF5B9F55
(1691555712.948230) vcan0 2A1#C4C5BF288F25C12B
(1691555712.949812) vcan0 2B3#A179979C1085A324
(1691555712.951347) vcan0 2ED#A6933C23F67DD094
(1691555712.952892) vcan0 3A7#7407A3D6784A08F4
(1691555712.954449) vcan0 18B#BBCA5473EBE97671
(1691555712.956023) vcan0 3B7#DA811373AF0402C9
(1691555712.957583) vcan0 11D#99419D92580CC33E
(1691555712.959142) vcan0 2DF#532A353DE72B2651
(1691555712.960688) vcan0 27B#B2C910E103793D82
(1691555712.962239) vcan0 1C9#779068B2BB4E4F93
(1691555712.963787) vcan0 1EA#4AE9AA2DE6C746C0
(1691555712.965348) vcan0 326#06F9FD82F846F07D
(1691555712.966911) vcan0 2E4#9EECA28C5185C848
(1691555712.968464) vcan0 106#2CB467186FAC8700
(1691555712.970003) vcan0 25F#D112622CD9A69501
(1691555712.971560) vcan0 364#0A9BDC5DE41AEBF2
(1691555712.973144) vcan0 184#FDC0C25EF28A9D53
(1691555713.186002) vcan0 3AA#BE3C0FB25D229A2E
(1691555713.187546) vcan0 3DF#E4CFBCE6C4E7D02C
(1691555713.189000) vcan0 365#34606C66512159A9
(1691555713.190443) vcan0 294#90007FB96167C76D
(1691555713.191798) vcan0 13D#EB703AFB1BAC6542
(1691555713.193112) vcan0 1EC#2D8989294BA3BD50
(1691555713.194466) vcan0 1E0#91C036FEE7C93D84
(1691555713.195816) vcan0 378#ECF2714449661680
(1691555713.197207) vcan0 2A1#8AEA1214DB816D5B
(1691555713.198581) vcan0 2B3#01027C154030052C
(1691555713.199988) vcan0 2ED#AE15585CDBC2EA38
(1691555713.201430) vcan0 3A7#BA5924D0843E220C
(1691555713.202745) vcan0 18B#05A8A29FDC0B6E92
(1691555713.204265) vcan0 3B7#2E6423EFA3BC4852
(1691555713.205719) vcan0 11D#BFB8A8C37F8E45DA
(1691555713.207436) vcan0 2DF#39D1E8C49A3B057A
(1691555713.208833) vcan0 27B#AB787A2709C69D7E
(1691555713.210367) vcan0 1C9#7FA08DA8721E1609
(1691555713.212023) vcan0 1EA#415C8CF0DFD814AA
(1691555713.213569) vcan0 326#D36E0886BD58BD1C
(1691555713.215268) vcan0 2E4#65287A301343282B
(1691555713.216685) vcan0 106#4E8161B2EA1B2C0D
(1691555713.218357) vcan0 25F#CFF6DE873170440B
(1691555713.220079) vcan0 364#BE7F168894136A87
(1691555713.221620) vcan0 184#8CF1359552341F2C
(1691555713.369722) vcan0 250#7F3EC300C3
(1691555713.371362) vcan0 251#C066E30066
(1691555713.372829) vcan0 252#C0FFDB0018
(1691555713.374262) vcan0 253#C006C70018
(1691555713.375652) vcan0 254#7F06C3FF18
(1691555713.381119) vcan0 118#97CB4DA357
(1691555713.382511) vcan0 167#732CE1DD93
(1691555713.383939) vcan0 3B6#57023E818B
(1691555713.385478) vcan0 2F7#CD3C06CD10
(1691555713.386872) vcan0 385#B487646D34
(1691555713.388215) vcan0 311#DC47BB5C6A
(1691555713.389549) vcan0 353#91730BDDA4
(1691555713.390983) vcan0 111#5C2B34026A
(1691555713.392316) vcan0 2AF#A13C9B4F1C
(1691555713.393636) vcan0 341#A65191C9F8
(1691555713.395054) vcan0 274#C07B699717
(1691555713.396401) vcan0 221#59F684F0AA
(1691555713.397716) vcan0 1E8#7CCFEF9DB1
(1691555713.399119) vcan0 237#0DD940FB22
(1691555713.400447) vcan0 335#1F9EB8AA89
(1691555713.401949) vcan0 29D#CF4347604F
(1691555713.403320) vcan0 360#393C381D53
(1691555713.404683) vcan0 10D#EC458A3DFA
(1691555713.406098) vcan0 3E8#8AE1C4ADD4
(1691555713.407438) vcan0 2C2#A052F7B099
(1691555713.408865) vcan0 346#4DA7CD06C9
(1691555713.410220) vcan0 36F#928945EDD4
(1691555713.411598) vcan0 2B4#D535F7351F
(1691555713.413015) vcan0 3E2#4F6DF58182
(1691555713.414340) vcan0 205#458AF2EBF0
(1691555713.415673) vcan0 299#B8A8EBBAE0
(1691555713.435702) vcan0 3AA#91A63F38D11B9DFC
(1691555713.437246) vcan0 3DF#60DB71F9AD781D3E
(1691555713.438814) vcan0 365#3AE06D2D708245EC
(1691555713.440357) vcan0 294#7D3691081AC654B3
(1691555713.441908) vcan0 13D#135DA9F7A9FA6A9C
(1691555713.443474) vcan0 1EC#40DAA9C8E493DB63
(1691555713.445075) vcan0 1E0#FB9BDBCFA2E84C59
(1691555713.446677) vcan0 378#F435486C8B98C8A9
(1691555713.448240) vcan0 2A1#70457BFE82257AB3
(1691555713.449825) vcan0 2B3#91AE3042CA60254A
(1691555713.451383) vcan0 2ED#CB7E278485FF7CAC
(1691555713.452969) vcan0 3A7#A82D111EBC73DEA8
(1691555713.454481) vcan0 18B#322848815F053110
(1691555713.455993) vcan0 3B7#E15436981664EE2D
(1691555713.457500) vcan0 11D#CFFED0D12E299CC5
(1691555713.459028) vcan0 2DF#D18011E93CB029EF
(1691555713.460529) vcan0 27B#83D82B37D9825978
(1691555713.462049) vcan0 1C9#376279F27D3C8331
(1691555713.463609) vcan0 1EA#2C5717658260C33B
(1691555713.465188) vcan0 326#18E96A74CE275265
(1691555713.466927) vcan0 2E4#9415B2332CDE5249
(1691555713.468683) vcan0 106#8505B8362EC99F81
(1691555713.470413) vcan0 25F#C9E9A2654C53946D
(1691555713.472129) vcan0 364#44DC2D09B9FEB0FD
(1691555713.473818) vcan0 184#1ED76FACBE7B943B
(1691555713.685947) vcan0 3AA#B73BF1752A68C2E1
(1691555713.687531) vcan0 3DF#42910BA0AD270ECB
(1691555713.689009) vcan0 365#F06CB64DBBBFF9F3
(1691555713.690413) vcan0 294#83CAB73619F2FA42
(1691555713.691858) vcan0 13D#B523A9136E0068C6
(1691555713.693235) vcan0 1EC#85A90B874E008683
(1691555713.694611) vcan0 1E0#C21CA14DAEFCEC1F
(1691555713.696011) vcan0 378#DC6D0327B96597B7
(1691555713.697413) vcan0 2A1#5FB7202387E3F236
(1691555713.698750) vcan0 2B3#F0A64E9CD79BBE6F
(1691555713.700183) vcan0 2ED#EDBBD0EA6A2FFAA5
(1691555713.701588) vcan0 3A7#46D0F6CC9D90B40D
(1691555713.703008) vcan0 18B#9530E8963AFD7E5C
(1691555713.704361) vcan0 3B7#467A048FD8FE949B
(1691555713.705717) vcan0 11D#A40BC491BECB233A
(1691555713.707093) vcan0 2DF#8A23CB74E9608444
(1691555713.708447) vcan0 27B#4BAD81EEF82FAF2F
(1691555713.709782) vcan0 1C9#E502863577046D42
(1691555713.711194) vcan0 1EA#15DCC7BF3A67E22E
(1691555713.712532) vcan0 326#032C2B8F07248B95
(1691555713.713961) vcan0 2E4#C1139398866DD8FF
(1691555713.715321) vcan0 106#608B9CFFF75E23A4
(1691555713.716676) vcan0 25F#E9D6C94B2E765571
(1691555713.718140) vcan0 364#95410680FD530049
(1691555713.719472) vcan0 184#B69584474E03A1F7
(1691555713.881212) vcan0 118#8912349A72
(1691555713.882775) vcan0 167#9B241F6924
(1691555713.884190) vcan0 3B6#1C13D48E2B
(1691555713.885616) vcan0 2F7#B685C56EDC
(1691555713.886989) vcan0 385#201E6F14D2
(1691555713.888334) vcan0 311#355A1E19C4
(1691555713.889672) vcan0 353#4D464ED76D
(1691555713.891037) vcan0 111#AFDA6CE2F5
(1691555713.892362) vcan0 2AF#517904E525
(1691555713.893700) vcan0 341#108F18AC91
(1691555713.895121) vcan0 274#EB5BBF5D8B
(1691555713.896505) vcan0 221#16CDF4CC97
(1691555713.897940) vcan0 1E8#C91FE39AB1
(1691555713.899289) vcan0 237#98DD9E079D
(1691555713.900613) vcan0 335#D781C13DA8
(1691555713.902181) vcan0 29D#95AECD06D8
(1691555713.903552) vcan0 360#E5A6659FBB
(1691555713.904939) vcan0 10D#25A9D64A61
(1691555713.906253) vcan0 3E8#B3CE9AC1C3
(1691555713.907618) vcan0 2C2#2AB5B49CE8
(1691555713.909026) vcan0 346#5E431BAEC0
(1691555713.910373) vcan0 36F#6FA77BBB45
(1691555713.911933) vcan0 2B4#3A328FB678
(1691555713.913298) vcan0 3E2#B10429E061
(1691555713.914658) vcan0 205#3293991BF1
(1691555713.916144) vcan0 299#AE8BA8B8EE8EBBA3
(1691555713.935712) vcan0 3AA#C741DB607A77B331
(1691555713.937146) vcan0 3DF#3D700AEC8849B5EC
(1691555713.938564) vcan0 365#81F28482475512A9
(1691555713.939941) vcan0 294#0119453E8C133DBC
(1691555713.941329) vcan0 13D#0F260AF47CE53DEE
(1691555713.942729) vcan0 1EC#C35E3CEABA5CB2F2
(1691555713.944164) vcan0 1E0#E238050F293DBB24
(1691555713.945560) vcan0 378#1FB0C5A76478B0F3
(1691555713.946949) vcan0 2A1#5CCA39C103025317
(1691555713.948354) vcan0 2B3#C1CE614CA43EE431
(1691555713.949758) vcan0 2ED#70A9D50837DDD72C
(1691555713.951164) vcan0 3A7#989550867D81FBB8
(1691555713.952573) vcan0 18B#43AFF5CB323B67C9
(1691555713.953994) vcan0 3B7#ED197DF4DC496541
(1691555713.955409) vcan0 11D#D3D45AB470CE173C
(1691555713.956850) vcan0 2DF#89C5C10E94A0AE92
(1691555713.958248) vcan0 27B#2826C224BE6FFE45
(1691555713.959644) vcan0 1C9#B01E6B18E4225657
(1691555713.961054) vcan0 1EA#789BE68330D3DB92
(1691555713.962452) vcan0 326#22ECB99514C34E5F
(1691555713.963842) vcan0 2E4#BA9FAF03F5DACE4B
(1691555713.965247) vcan0 106#B1D33321199556DF
(1691555713.966733) vcan0 25F#76114E4E17167514
(1691555713.968150) vcan0 364#F322504A0E285C69
(1691555713.969564) vcan0 184#919C3D971A92BDD6
(1691555714.185958) vcan0 3AA#7301B617A72D2711
(1691555714.187523) vcan0 3DF#01134DFA511BBBD3
(1691555714.188996) vcan0 365#4A466844B2595511
(1691555714.190423) vcan0 294#E3B9A99AD428C0B4
(1691555714.191765) vcan0 13D#BEC681A7DA8BB3B4
(1691555714.193178) vcan0 1EC#F920F44571B929FB
(1691555714.194542) vcan0 1E0#EEA987FBF296451C
(1691555714.195935) vcan0 378#638277F72488C7AB
(1691555714.197392) vcan0 2A1#EDD3F2ECEE5C4DC1
(1691555714.198809) vcan0 2B3#3167BEBE6E84BB3F
(1691555714.200302) vcan0 2ED#37CA02D9813C7D69
(1691555714.201846) vcan0 3A7#ED76F8EEBC3FEDC1
(1691555714.203295) vcan0 18B#60B8E2A1DE4FA4E6
(1691555714.204696) vcan0 3B7#871A946EBCA0ACDB
(1691555714.206082) vcan0 11D#C0FEAEA19ADD2C7D
(1691555714.207545) vcan0 2DF#FB4FC4817D108DBB
(1691555714.208970) vcan0 27B#B560711E489565B1
(1691555714.210343) vcan0 1C9#11013ACF4C6DEF92
(1691555714.211718) vcan0 1EA#12357948418AFE4B
(1691555714.213187) vcan0 326#C90D628492AD827C
(1691555714.214541) vcan0 2E4#49558F5272E76926
(1691555714.215995) vcan0 106#990B5263BB19FADF
(1691555714.217381) vcan0 25F#F6C0B19733A59B3D
(1691555714.218725) vcan0 364#DC7554C9D0B151A9
(1691555714.220101) vcan0 184#599F479D98F2BD9D
(1691555714.369856) vcan0 250#0000000000
(1691555714.371404) vcan0 251#0000000000
(1691555714.372800) vcan0 252#0000000000
(1691555714.374172) vcan0 253#0000000000
(1691555714.375526) vcan0 254#0000000000
(1691555714.380935) vcan0 118#0BA8DED752
(1691555714.382340) vcan0 167#42191477F8
(1691555714.383715) vcan0 3B6#2A74CD3F25
(1691555714.385126) vcan0 2F7#4D0F08640C
(1691555714.386525) vcan0 385#C453D08F50
(1691555714.387932) vcan0 311#C2CE1D282D
(1691555714.389318) vcan0 353#B99F7F3508
(1691555714.390674) vcan0 111#75FA417477
(1691555714.392086) vcan0 2AF#719E14DEFF
(1691555714.393461) vcan0 341#80BC1272C0
(1691555714.394895) vcan0 274#F339317842
(1691555714.396284) vcan0 221#A78812FB0F
(1691555714.397652) vcan0 1E8#DB40354BBF
(1691555714.399066) vcan0 237#3D00AF8333
(1691555714.400472) vcan0 335#7C3EA29ED0
(1691555714.402002) vcan0 29D#7315D21390
(1691555714.403355) vcan0 360#D3FCB4AFC4
(1691555714.404719) vcan0 10D#8C09BA2B99
(1691555714.406140) vcan0 3E8#25298DE135
(1691555714.407546) vcan0 2C2#F83481185C
(1691555714.409061) vcan0 346#F9C7EC8B64
(1691555714.410438) vcan0 36F#7F86E8D718
(1691555714.411819) vcan0 2B4#8F230B6ACD
(1691555714.413226) vcan0 3E2#49960E17F9
(1691555714.414620) vcan0 205#99EC276D11
(1691555714.416087) vcan0 299#A8AAE2A2A8AEEB8E
(1691555714.435726) vcan0 3AA#88CB20937214E21F
(1691555714.437302) vcan0 3DF#D970BA61D03DA517
(1691555714.438877) vcan0 365#1E8A36F24CB74328
(1691555714.440438) vcan0 294#752B4C9D6CA5D36D
(1691555714.441992) vcan0 13D#0F9D4410BC1B7A7F
(1691555714.443550) vcan0 1EC#45724B4FE0B01D65
(1691555714.445117) vcan0 1E0#B4CA1B838203A5E1
(1691555714.446672) vcan0 378#7326BA32A2D654FE
(1691555714.448239) vcan0 2A1#FDAA4EBFA64B1189
(1691555714.449820) vcan0 2B3#96C792F03DB4BAE9
(1691555714.451365) vcan0 2ED#58A6DE7908311C72
(1691555714.452927) vcan0 3A7#657882C84A68B5C9
(1691555714.454485) vcan0 18B#1FBB40B2A0CE5A8D
(1691555714.456050) vcan0 3B7#A71789B292007642
(1691555714.457602) vcan0 11D#D3CE88BDE82BE72E
(1691555714.459165) vcan0 2DF#19A4BFB6323B8A80
(1691555714.460709) vcan0 27B#3BE04AFB2A0F6BB5
(1691555714.462262) vcan0 1C9#BC19E73162F3C436
(1691555714.463815) vcan0 1EA#81DEA4C29C3D7E60
(1691555714.465409) vcan0 326#A298E6DFB9E4C21A
(1691555714.466968) vcan0 2E4#DD1184D1BA1462B3
(1691555714.468519) vcan0 106#43A62C6C0559528E
(1691555714.470089) vcan0 25F#80F38E89BC58209B
(1691555714.471637) vcan0 364#5185F6F8F321B4DD
(1691555714.473180) vcan0 184#B79813D4DA02242A
(1691555714.685964) vcan0 3AA#4A5AD9A2CA89B0A1
(1691555714.687528) vcan0 3DF#11DDD003B05DBB49
(1691555714.689046) vcan0 365#0D7DA06A640C823A
(1691555714.690485) vcan0 294#7634687CD66F263C
(1691555714.691916) vcan0 13D#6BB33E896C41CA2D
(1691555714.693293) vcan0 1EC#1D67C09736F61563
(1691555714.694677) vcan0 1E0#AF86D25A4A4B17D3
(1691555714.696240) vcan0 378#95F81B5ED0D493D8
(1691555714.697725) vcan0 2A1#FDC4DB98A187C40D
(1691555714.699154) vcan0 2B3#815E85CA7B671654
(1691555714.700506) vcan0 2ED#D1598C0E4AC3FC41
(1691555714.702068) vcan0 3A7#E279085D77E3456F
(1691555714.703457) vcan0 18B#CB33745C5B8887EA
(1691555714.704910) vcan0 3B7#6B4DB5FD2EA7E325
(1691555714.706279) vcan0 11D#127637F84C652ED6
(1691555714.707630) vcan0 2DF#4079CFE41EAAF58B
(1691555714.709153) vcan0 27B#5A2DABD11DB8F672
(1691555714.710510) vcan0 1C9#B3A7594EA7B7D129
(1691555714.711971) vcan0 1EA#9DBEE37203E6224A
(1691555714.713460) vcan0 326#A8977AC002D9F622
(1691555714.714886) vcan0 2E4#A8EE481CA93C570A
(1691555714.716264) vcan0 106#C70914B5FF889E9E
(1691555714.717718) vcan0 25F#1152C2919E9AB548
(1691555714.719138) vcan0 364#97F607DF98047B38
(1691555714.720489) vcan0 184#063CA60839DF3403
(1691555714.881259) vcan0 118#AA62A5A0C8
(1691555714.882820) vcan0 167#FD60388394
(1691555714.884292) vcan0 3B6#8D33F208DB
(1691555714.885721) vcan0 2F7#96AB7CC423
(1691555714.887127) vcan0 385#B4D82D121E
(1691555714.888479) vcan0 311#AE940B0CC5
(1691555714.889833) vcan0 353#F3F235B374
(1691555714.891207) vcan0 111#049A1396BC
(1691555714.892551) vcan0 2AF#D4514525C5
(1691555714.893998) vcan0 341#69602C05D6
(1691555714.895333) vcan0 274#D0E9B7EC5F
(1691555714.896689) vcan0 221#D9C049E4E8
(1691555714.898110) vcan0 1E8#FF3F066D15
(1691555714.899443) vcan0 237#5EE183EC9B
(1691555714.900781) vcan0 335#88E9B95FAB
(1691555714.902267) vcan0 29D#B7D05099F8
(1691555714.903624) vcan0 360#68A372E23B
(1691555714.905022) vcan0 10D#1B0A1B2CD3
(1691555714.906405) vcan0 3E8#DAD2FCFF84
(1691555714.907741) vcan0 2C2#9AB3D508BA
(1691555714.909145) vcan0 346#A1930D1784
(1691555714.910521) vcan0 36F#40A9594E3D
(1691555714.911989) vcan0 2B4#070E97ECE3
(1691555714.913346) vcan0 3E2#28213FF9DF
(1691555714.914696) vcan0 205#BF9571B128
(1691555714.916130) vcan0 299#BB8EEEEE2B8BA2BB
(1691555714.935847) vcan0 3AA#AACD4F98CF55157E
(1691555714.937309) vcan0 3DF#04417EB29040CBD2
(1691555714.938739) vcan0 365#93D823BE67C677AC
(1691555714.940173) vcan0 294#6E7DA290A3FBE225
(1691555714.941584) vcan0 13D#64DEF132A8E20FD2
(1691555714.943035) vcan0 1EC#3A0F15B989875436
(1691555714.944475) vcan0 1E0#E85019BD3A0F8E7E
(1691555714.945874) vcan0 378#F62CDFE017A5CBC3
(1691555714.947288) vcan0 2A1#475924AC941B80C9
(1691555714.948692) vcan0 2B3#7F405FC610878B92
(1691555714.950093) vcan0 2ED#E20FA738D2D0A4D2
(1691555714.951566) vcan0 3A7#42348C72C36BFF03
(1691555714.952983) vcan0 18B#13851834ABE46E2B
(1691555714.954400) vcan0 3B7#CE1FB027C80FEA43
(1691555714.955844) vcan0 11D#6D99F5045FABE683
(1691555714.957250) vcan0 2DF#FF4647ED381CD727
(1691555714.958641) vcan0 27B#8D6187A13BB2C718
(1691555714.960080) vcan0 1C9#B53315FF6C7F2717
(1691555714.961477) vcan0 1EA#825233D7F6DA00C9
(1691555714.962883) vcan0 326#D344494201D56DB6
(1691555714.964298) vcan0 2E4#19A8D5530F46A1BC
(1691555714.965705) vcan0 106#71C9AA9B2E84B860
(1691555714.967102) vcan0 25F#FCF80A14B9D46936
(1691555714.968513) vcan0 364#4234680BDC8D7537
(1691555714.969928) vcan0 184#00E974851DEEE318
(1691555715.185804) vcan0 3AA#23B6CDBA009226FC
(1691555715.187324) vcan0 3DF#1F60728F07DA78B7
(1691555715.188741) vcan0 365#8ADA88E258F5F8F2
(1691555715.190142) vcan0 294#7A3CC0F08864E5C8
(1691555715.191500) vcan0 13D#1FA69FD858B7D965
(1691555715.192905) vcan0 1EC#D02C85E90A94D2DF
(1691555715.194238) vcan0 1E0#6632B6EA9B0B1B42
(1691555715.195611) vcan0 378#C39B14AB43C5070F
(1691555715.197061) vcan0 2A1#DB94866779A47F77
(1691555715.198479) vcan0 2B3#96962F829B1BA618
(1691555715.199948) vcan0 2ED#0370798A5928CB2E
(1691555715.201364) vcan0 3A7#7A6342629FEE0B34
(1691555715.202803) vcan0 18B#BC6B42225F548EF4
(1691555715.204196) vcan0 3B7#9CAE406C8EBC659B
(1691555715.205585) vcan0 11D#22338A46A9D0E6FA
(1691555715.207044) vcan0 2DF#4599D06D4B9E289A
(1691555715.208417) vcan0 27B#BBA9BCFD115F66D8
(1691555715.209749) vcan0 1C9#0135AC26C65D7FAC
(1691555715.211230) vcan0 1EA#0DC66E3830EA7F19
(1691555715.212561) vcan0 326#E0A487FD41F5D125
(1691555715.213965) vcan0 2E4#CB65A4030E86D6BE
(1691555715.215633) vcan0 106#463744CEE58C5E92
(1691555715.217070) vcan0 25F#EF25F6C8786669CA
(1691555715.218557) vcan0 364#D3F51811545F13B2
(1691555715.220019) vcan0 184#7EA26FF38AB8F092
(1691555715.369747) vcan0 250#7EC3007F7E
(1691555715.371402) vcan0 251#C3C300C083
(1691555715.372855) vcan0 252#C3C3007F0E
(1691555715.374306) vcan0 253#C3C3000383
(1691555715.375698) vcan0 254#7E7EFFFE7E
(1691555715.380891) vcan0 118#78D738819E
(1691555715.382336) vcan0 167#A5CBB45BDA
(1691555715.383726) vcan0 3B6#E419BFAB4A
(1691555715.385126) vcan0 2F7#BEA9E23295
(1691555715.386469) vcan0 385#7C39DE0696
(1691555715.387864) vcan0 311#D85215740B
(1691555715.389195) vcan0 353#2503FCDAC9
(1691555715.390557) vcan0 111#B4984B639B
(1691555715.391954) vcan0 2AF#681EE1B4CC
(1691555715.393322) vcan0 341#E831E823B1
(1691555715.394663) vcan0 274#D39EB1E608
(1691555715.396059) vcan0 221#709EB82B70
(1691555715.397396) vcan0 1E8#22B3CAC932
(1691555715.398725) vcan0 237#6DE5E7C86E
(1691555715.400119) vcan0 335#9A4966D990
(1691555715.401556) vcan0 29D#4291D86515
(1691555715.402900) vcan0 360#8A08AAA524
(1691555715.404265) vcan0 10D#AE8002D2EF
(1691555715.405625) vcan0 3E8#26FC9FEB9A
(1691555715.407021) vcan0 2C2#020D47DA5E
(1691555715.408401) vcan0 346#4C74799DE4
(1691555715.409759) vcan0 36F#85954972D1
(1691555715.411179) vcan0 2B4#7501046D11
(1691555715.412550) vcan0 3E2#E4621153F4
(1691555715.413980) vcan0 205#E25EF0672D
(1691555715.415324) vcan0 299#AE3BAA2A2BBAE2AB
(1691555715.435720) vcan0 3AA#F7FF4EC285662C51
(1691555715.437158) vcan0 3DF#03AA9B839B7CEE0E
(1691555715.438596) vcan0 365#EF10B2D1992CF413
(1691555715.440003) vcan0 294#A53AF7BA8C6BE1BC
(1691555715.441417) vcan0 13D#E20AD8CC085717DE
(1691555715.442823) vcan0 1EC#887D615DCC3D9DCF
(1691555715.444215) vcan0 1E0#DC1AD5B52E60D0B3
(1691555715.445640) vcan0 378#7452B8D79FA9074B
(1691555715.447053) vcan0 2A1#29670FD8C2849631
(1691555715.448485) vcan0 2B3#0682DB2AF7DBB055
(1691555715.449898) vcan0 2ED#5F70C8B57EE32851
(1691555715.451381) vcan0 3A7#BA924F3D2806C7DA
(1691555715.452803) vcan0 18B#C34BDFEF176CBCE3
(1691555715.454232) vcan0 3B7#793462621318A628
(1691555715.455663) vcan0 11D#32CA6A302A14F3BC
(1691555715.457070) vcan0 2DF#EBCD06D889A112F0
(1691555715.458472) vcan0 27B#52078DA4C4B1C54A
(1691555715.459865) vcan0 1C9#0F969B6349F9E415
(1691555715.461273) vcan0 1EA#AFADBEE2665CC3C1
(1691555715.462672) vcan0 326#A0C9282E9DB674E4
(1691555715.464092) vcan0 2E4#C0D5F79103CA343F
(1691555715.465493) vcan0 106#3B0085B48994B44D
(1691555715.466897) vcan0 25F#DD491E45D316B8FA
(1691555715.468360) vcan0 364#07F9E83789F211F1
(1691555715.469810) vcan0 184#25E9BAC76D396456
(1691555715.686009) vcan0 3AA#363DA8A54F58B055
(1691555715.687544) vcan0 3DF#2EDF667ADBE99BFB
(1691555715.689048) vcan0 365#6B9D71930DB11B03
(1691555715.690497) vcan0 294#2388179B626D56F2
(1691555715.691844) vcan0 13D#81A8FC135E277B8F
(1691555715.693193) vcan0 1EC#02776BE3C79749E4
(1691555715.694504) vcan0 1E0#CA2194575F743C72
(1691555715.695863) vcan0 378#9CB6ECAC8CB8DB97
(1691555715.697228) vcan0 2A1#E320FB4923CC44A9
(1691555715.698580) vcan0 2B3#C354FDA1F863A45F
(1691555715.700000) vcan0 2ED#AF3DFCAD0C1D9488
(1691555715.701479) vcan0 3A7#CED83534856638BC
(1691555715.702912) vcan0 18B#93F7D9D898DF49FE
(1691555715.704259) vcan0 3B7#0D5E0567117EBCE9
(1691555715.705608) vcan0 11D#DCF4D0397BE1DC9B
(1691555715.706999) vcan0 2DF#84FCF09530FF35EC
(1691555715.708359) vcan0 27B#5FA27EAB92BBDC5C
(1691555715.709708) vcan0 1C9#FCD4C0FE1B045BE6
(1691555715.711101) vcan0 1EA#D81B414131BB01B5
(1691555715.712486) vcan0 326#5EED970C389A51AB
(1691555715.713899) vcan0 2E4#EC8A8653D2F6AFBD
(1691555715.715238) vcan0 106#55E5B0F23E4F7026
(1691555715.716581) vcan0 25F#ECC76FF5A77DC804
(1691555715.718064) vcan0 364#7547DA11BC438284
(1691555715.719462) vcan0 184#CB6FAF0AD1AAEAE9
(1691555715.881143) vcan0 118#263C12595A
(1691555715.882685) vcan0 167#CB508246EF
(1691555715.884137) vcan0 3B6#D8BC1FF96A
(1691555715.885548) vcan0 2F7#F8D07AE303
(1691555715.886932) vcan0 385#8F94D0C84B
(1691555715.888222) vcan0 311#B26CC36CBC
(1691555715.889574) vcan0 353#E765E4CF6B
(1691555715.891067) vcan0 111#DE286780A4
(1691555715.892418) vcan0 2AF#451E810373
(1691555715.893871) vcan0 341#653BDA3B0E
(1691555715.895335) vcan0 274#DFD805A542
(1691555715.896685) vcan0 221#C25ACAD4C9
(1691555715.898079) vcan0 1E8#FF6FE36022
(1691555715.899412) vcan0 237#9E46370BCB
(1691555715.900865) vcan0 335#12503958D4
(1691555715.902241) vcan0 29D#CECAC66AE7
(1691555715.903592) vcan0 360#5C2BBAE11E
(1691555715.905016) vcan0 10D#9AE3CBA74D
(1691555715.906348) vcan0 3E8#984F95C869
(1691555715.907706) vcan0 2C2#BF93FC38CB
(1691555715.909156) vcan0 346#14F2EC85B5
(1691555715.910480) vcan0 36F#03F2002ACF
(1691555715.911789) vcan0 2B4#82513DB3D7
(1691555715.913210) vcan0 3E2#6969960F4E
(1691555715.914565) vcan0 205#BB2617DD78
(1691555715.916015) vcan0 299#8E8EA2BBAE3A8EEE
(1691555715.935724) vcan0 3AA#088370C645A2E93F
(1691555715.937163) vcan0 3DF#4317A1C14E0E4597
(1691555715.938565) vcan0 365#AC23D30BB54A8AC3
(1691555715.940103) vcan0 294#0DBAFA721C49B29E
(1691555715.941493) vcan0 13D#AB2BD35AA91179E0
(1691555715.942899) vcan0 1EC#507ADB3064841015
(1691555715.944304) vcan0 1E0#49B1A9B98B52C56B
(1691555715.945710) vcan0 378#92885365F632BC87
(1691555715.947112) vcan0 2A1#646F9FC0916FDA51
(1691555715.948513) vcan0 2B3#5D3659D32B65A198
(1691555715.949922) vcan0 2ED#321447541D4CB0C5
(1691555715.951323) vcan0 3A7#6522CFBA1D36C3DC
(1691555715.952741) vcan0 18B#F0548A2913FBA5B7
(1691555715.954144) vcan0 3B7#4036936974934A15
(1691555715.955530) vcan0 11D#DE95E8B16873A205
(1691555715.956980) vcan0 2DF#911876E2877329B1
(1691555715.958370) vcan0 27B#60B06FCB5BB2EDD1
(1691555715.959785) vcan0 1C9#EBB5C532DBE606AD
(1691555715.961160) vcan0 1EA#43A447F2ED033BB0
(1691555715.962562) vcan0 326#42A28ACDB80E895F
(1691555715.963969) vcan0 2E4#10D79E5291056DFD
(1691555715.965370) vcan0 106#4B2F56BD727D27FE
(1691555715.966827) vcan0 25F#72E04C2700B77601
(1691555715.968223) vcan0 364#21705620CBE78BDA
(1691555715.969624) vcan0 184#8309F22DD90FFAD6
(1691555716.185927) vcan0 3AA#9A0A7FA66D847CA2
(1691555716.187467) vcan0 3DF#C9E617EFA22BABCE
(1691555716.188940) vcan0 365#99FBFF9B2F0181B5
(1691555716.190365) vcan0 294#AABDA5A6C8FC8015
(1691555716.191711) vcan0 13D#02662685D60EDBCA
(1691555716.193063) vcan0 1EC#E7E4E251DDF27298
(1691555716.194415) vcan0 1E0#8E81A623146CF644
(1691555716.195760) vcan0 378#D0BD7F39D358DE1A
(1691555716.197175) vcan0 2A1#633AF6B133BC6889
(1691555716.198588) vcan0 2B3#C5EEC92628B93047
(1691555716.200098) vcan0 2ED#CA4883B38A7862FB
(1691555716.201506) vcan0 3A7#826F35C58EA8A0B0
(1691555716.202916) vcan0 18B#568467CF11533FCC
(1691555716.204313) vcan0 3B7#30B38784B949F1B0
(1691555716.205688) vcan0 11D#809CF565BE1CFDA6
(1691555716.207082) vcan0 2DF#7F1BB77E416192CA
(1691555716.208440) vcan0 27B#2F0BE76315703C77
(1691555716.209779) vcan0 1C9#25F631F6855D7D6D
(1691555716.211176) vcan0 1EA#0F34EA4720219AB3
(1691555716.212537) vcan0 326#912664E78D533210
(1691555716.213968) vcan0 2E4#D6C449CC1775084D
(1691555716.215348) vcan0 106#4E064063090A6163
(1691555716.216767) vcan0 25F#1D3F55450F3C7ECE
(1691555716.218277) vcan0 364#710F255FEAE60A8A
(1691555716.219667) vcan0 184#6E36A04BABEF4DE9
(1691555716.369741) vcan0 250#0000000000
(1691555716.371372) vcan0 251#0000000000
(1691555716.372847) vcan0 252#0000000000
(1691555716.374313) vcan0 253#0000000000
(1691555716.375738) vcan0 254#0000000000
(1691555716.381115) vcan0 118#87BBF382F9
(1691555716.382498) vcan0 167#DF143ED421
(1691555716.383909) vcan0 3B6#72831FAE14
(1691555716.385231) vcan0 2F7#2F5FE0262C
(1691555716.386538) vcan0 385#50749A4301
(1691555716.387918) vcan0 311#FD027A5426
(1691555716.389250) vcan0 353#5B4EEE4B59
(1691555716.390576) vcan0 111#31686A78A4
(1691555716.391979) vcan0 2AF#08748D22A1
(1691555716.393320) vcan0 341#B52D46209E
(1691555716.394663) vcan0 274#49FF9804D4
(1691555716.396081) vcan0 221#0AB93399CF
(1691555716.397422) vcan0 1E8#1B44C71D6D
(1691555716.398782) vcan0 237#CB08DDF409
(1691555716.400170) vcan0 335#61A1217BBF
(1691555716.401523) vcan0 29D#A5068822E4
(1691555716.402930) vcan0 360#7877347380
(1691555716.404274) vcan0 10D#074DEB5006
(1691555716.405860) vcan0 3E8#BA985DA5BB
(1691555716.407207) vcan0 2C2#2AE4610C08
(1691555716.408598) vcan0 346#F6E5360A59
(1691555716.410004) vcan0 36F#95F8F61104
(1691555716.411380) vcan0 2B4#701C2105A2
(1691555716.412752) vcan0 3E2#4297011ED9
(1691555716.414178) vcan0 205#DCD9BA581E
(1691555716.415571) vcan0 299#EE3BAA2BBAE3AEE3
(1691555716.435766) vcan0 3AA#5821B17CC2A2376A
(1691555716.437214) vcan0 3DF#6DB4A31B20C79A72
(1691555716.438635) vcan0 365#4CF3F5F7AAEB77DC
(1691555716.440066) vcan0 294#7E0C69F2F2BBEDEC
(1691555716.441493) vcan0 13D#EB78FFC61F5CF136
(1691555716.442927) vcan0 1EC#BB09B23221952319
(1691555716.444377) vcan0 1E0#20AA1CB594D950D5
(1691555716.445827) vcan0 378#4025D0F4CF1FFDF1
(1691555716.447253) vcan0 2A1#F9CBA21D4D5018CE
(1691555716.448694) vcan0 2B3#7E9979D52B297833
(1691555716.450130) vcan0 2ED#D03A795D2FB7E75C
(1691555716.451562) vcan0 3A7#683AA82E1185EFD3
(1691555716.453018) vcan0 18B#F93183E874A31A8B
(1691555716.454410) vcan0 3B7#BC3A2E69984ACDFD
(1691555716.455853) vcan0 11D#857E53FEE149671C
(1691555716.457292) vcan0 2DF#579AB3C5849A5244
(1691555716.458739) vcan0 27B#DA981F73C9F8B5C2
(1691555716.460182) vcan0 1C9#EF5E653746923420
(1691555716.461634) vcan0 1EA#50F4CAB40EA5AE1F
(1691555716.463089) vcan0 326#D4C76F15CD8E351A
(1691555716.464501) vcan0 2E4#816B310C660CE057
(1691555716.465935) vcan0 106#504BEDDDB9880ADA
(1691555716.467382) vcan0 25F#84EBAF4F75311042
(1691555716.468847) vcan0 364#4BD502FAAC06F3A1
(1691555716.470284) vcan0 184#1B93D74917BA95A4
(1691555716.685856) vcan0 3AA#FB1A997A515F3B50
(1691555716.687418) vcan0 3DF#F1DFAB66A7D4BFE6
(1691555716.688894) vcan0 365#9FE54C92E91E06BF
(1691555716.690320) vcan0 294#AC1852E256D60B23
(1691555716.691664) vcan0 13D#A587C2E83CA04D65
(1691555716.693103) vcan0 1EC#235F46FF1A1C5981
(1691555716.694480) vcan0 1E0#768F144997DEF526
(1691555716.695830) vcan0 378#0BB262253A435F15
(1691555716.697300) vcan0 2A1#A421BFD1E0F8FB6E
(1691555716.698664) vcan0 2B3#A7346595C1F4D023
(1691555716.700107) vcan0 2ED#0CF2CA0F8435651E
(1691555716.701585) vcan0 3A7#5107E40C07FCD74B
(1691555716.703052) vcan0 18B#B18D1F1A352FE425
(1691555716.704439) vcan0 3B7#6ED650B042CE1119
(1691555716.705759) vcan0 11D#B55886407868960F
(1691555716.707163) vcan0 2DF#DA2CAB8BF12AED28
(1691555716.708577) vcan0 27B#B66FB8D5E36DBC98
(1691555716.709961) vcan0 1C9#3E54F91141584E26
(1691555716.711303) vcan0 1EA#DC049618A3DD30E2
(1691555716.712672) vcan0 326#C3A843C3EF9C83DC
(1691555716.714097) vcan0 2E4#9C063BE2BAD394A4
(1691555716.715429) vcan0 106#7E1862BFF58218E5
(1691555716.716767) vcan0 25F#3D5A0194E410FF34
(1691555716.718251) vcan0 364#EC41D70988280039
(1691555716.719604) vcan0 184#E94AB01C84A2445B
(1691555716.881209) vcan0 118#F1D4DD5D02
(1691555716.882744) vcan0 167#0BEB4B11D4
(1691555716.884213) vcan0 3B6#2B6DF29EC6
(1691555716.885681) vcan0 2F7#822549B75F
(1691555716.887065) vcan0 385#C7C48F442C
(1691555716.888419) vcan0 311#6EE22C7BF8
(1691555716.889885) vcan0 353#C3003FF43C
(1691555716.891282) vcan0 111#5A879FEAB0
(1691555716.892644) vcan0 2AF#42CDF70B1A
(1691555716.894075) vcan0 341#E13AEE7729
(1691555716.895470) vcan0 274#AC35761BAA
(1691555716.897014) vcan0 221#1D9EEBEECE
(1691555716.898386) vcan0 1E8#71B166AB00
(1691555716.899744) vcan0 237#2266A9DFB2
(1691555716.901260) vcan0 335#D5A64D5088
(1691555716.902613) vcan0 29D#EC5F51E047
(1691555716.904023) vcan0 360#DD523A26A9
(1691555716.905391) vcan0 10D#3D7AEA7DB1
(1691555716.906735) vcan0 3E8#58F2C5EBE5
(1691555716.908127) vcan0 2C2#14AF32BEA3
(1691555716.909496) vcan0 346#854D1D3902
(1691555716.910954) vcan0 36F#CB6A6946CD
(1691555716.912305) vcan0 2B4#7F3F8E1464
(1691555716.913653) vcan0 3E2#E130D31CE3
(1691555716.915071) vcan0 205#8CA3FA6A57
(1691555716.916469) vcan0 299#BB8AE2E8AEEB8BBB
(1691555716.935700) vcan0 3AA#9C0F57BE20B657C9
(1691555716.937165) vcan0 3DF#1D368F7B531DE8E6
(1691555716.938598) vcan0 365#8775DD6C3F70C441
(1691555716.939993) vcan0 294#6C5177B8BB19B8B7
(1691555716.941419) vcan0 13D#EA3B6A36E4CAA54E
(1691555716.942837) vcan0 1EC#9F2206B4D6B785E0
(1691555716.944239) vcan0 1E0#6BF7110E87E60C43
(1691555716.945646) vcan0 378#B74B334D883C8879
(1691555716.947064) vcan0 2A1#C490E2292710CAD7
(1691555716.948463) vcan0 2B3#339F724AAEC40CB1
(1691555716.949872) vcan0 2ED#8C5BD1E152A5AF3C
(1691555716.951271) vcan0 3A7#2C47202D038A9CAC
(1691555716.952642) vcan0 18B#3580C592536C61EB
(1691555716.954050) vcan0 3B7#3B8F6FF49BE691DE
(1691555716.955435) vcan0 11D#199A158EF09F2B59
(1691555716.956843) vcan0 2DF#3A11CF1C037F6B2A
(1691555716.958237) vcan0 27B#280E22158966A020
(1691555716.959636) vcan0 1C9#55BE7B243CBF7537
(1691555716.961082) vcan0 1EA#833EC46C427C2293
(1691555716.962466) vcan0 326#C5FFFFD7EE57A58F
(1691555716.963865) vcan0 2E4#DAD37188A4ADED6D
(1691555716.965287) vcan0 106#99C81669019D3EC6
(1691555716.966648) vcan0 25F#B8C5F26630F1B537
(1691555716.968061) vcan0 364#717EE074CDA8A3DF
(1691555716.969467) vcan0 184#63EE16077FAEA3CA
(1691555717.185914) vcan0 3AA#9C463C5FA49A9B07
(1691555717.187473) vcan0 3DF#6B3FE674A2170281
(1691555717.188931) vcan0 365#B6C1A5CA4D624900
(1691555717.190367) vcan0 294#3935B053906B9BAB
(1691555717.191748) vcan0 13D#D61EAD9DCD927C6D
(1691555717.193128) vcan0 1EC#6E0FC72D2EDDCF79
(1691555717.194470) vcan0 1E0#144E757C1EAF33B3
(1691555717.195824) vcan0 378#E51E711A8B05F513
(1691555717.197189) vcan0 2A1#449760473BCDFCA4
(1691555717.198569) vcan0 2B3#5E8A8D5F79D5765B
(1691555717.200039) vcan0 2ED#612F0CCE97842376
(1691555717.201493) vcan0 3A7#C8D55E5F38B3EE7B
(1691555717.202916) vcan0 18B#39BF9ACEC34D6499
(1691555717.204317) vcan0 3B7#AB6CBFCC5162C594
(1691555717.205656) vcan0 11D#52549F906E471CC0
(1691555717.207066) vcan0 2DF#05A64B3F6A1D1E5F
(1691555717.208468) vcan0 27B#9E3FF8F69FB38F11
(1691555717.209952) vcan0 1C9#02B4D1628E9CD950
(1691555717.211339) vcan0 1EA#37846BF5021E5908
(1691555717.212678) vcan0 326#9E9CFF65586FAEDD
(1691555717.214216) vcan0 2E4#72B3A3FE0A22E545
(1691555717.215564) vcan0 106#3F63588B9B8934F1
(1691555717.217060) vcan0 25F#356E0A4697262D6A
(1691555717.218491) vcan0 364#4381E04006865E19
(1691555717.219970) vcan0 184#0B27A8EFE0169173
(1691555717.369854) vcan0 250#7E00C37E78
(1691555717.371426) vcan0 251#8300E7830C
(1691555717.372847) vcan0 252#0E00DB0E03
(1691555717.374236) vcan0 253#8300C3830C
(1691555717.375580) vcan0 254#7EFFC37E78
(1691555717.380956) vcan0 118#6792BD386B
(1691555717.382367) vcan0 167#8DFCDF380F
(1691555717.383741) vcan0 3B6#51CA4C9B61
(1691555717.385126) vcan0 2F7#0F1CCE99C9
(1691555717.386490) vcan0 385#64CE46FE6F
(1691555717.387914) vcan0 311#87EF76F501
(1691555717.389321) vcan0 353#81AC64C3CA
(1691555717.390648) vcan0 111#B8A0036947
(1691555717.392081) vcan0 2AF#84C1F40505
(1691555717.393449) vcan0 341#4091BC687F
(1691555717.394935) vcan0 274#D4B1385D30
(1691555717.396278) vcan0 221#69550FDCC6
(1691555717.397618) vcan0 1E8#6FFF37EEE1
(1691555717.399052) vcan0 237#AF7CFCADFD
(1691555717.400494) vcan0 335#D3CF80CCB9
(1691555717.401987) vcan0 29D#65371521D0
(1691555717.403371) vcan0 360#EE888F0E49
(1691555717.404739) vcan0 10D#FE7DF0A4EB
(1691555717.406169) vcan0 3E8#94916122EC
(1691555717.407523) vcan0 2C2#EE0178B59D
(1691555717.408990) vcan0 346#A1FEFDE98B
(1691555717.410385) vcan0 36F#FD517B5EBD
(1691555717.411719) vcan0 2B4#355B0CA0A9
(1691555717.413121) vcan0 3E2#6AB9708F2D
(1691555717.414494) vcan0 205#ED28BF773B
(1691555717.415959) vcan0 299#B8A8EBBAE0
(1691555717.435752) vcan0 3AA#0E82128C02E55604
(1691555717.437324) vcan0 3DF#4BFD7DEC06B69B15
(1691555717.438943) vcan0 365#F346F14930F2741C
(1691555717.440529) vcan0 294#189289B2776643EF
(1691555717.442148) vcan0 13D#DA147CCF03A2EF2F
(1691555717.443743) vcan0 1EC#A96EAB68468D3C10
(1691555717.445336) vcan0 1E0#CC9EAFF50109E1CE
(1691555717.446943) vcan0 378#20CF48ED70F18775
(1691555717.448535) vcan0 2A1#D3B7DBF149C121A8
(1691555717.450114) vcan0 2B3#159682E70AA6F28A
(1691555717.451715) vcan0 2ED#E23FB554F7F333FE
(1691555717.453333) vcan0 3A7#DF109DC9396D4B40
(1691555717.454964) vcan0 18B#BEE1606B265A617A
(1691555717.456550) vcan0 3B7#6FFFA9F27ECBE469
(1691555717.458191) vcan0 11D#06C4A75996BD2B26
(1691555717.459786) vcan0 2DF#1E0865DE7BDE3EA1
(1691555717.461378) vcan0 27B#1615962163504830
(1691555717.462998) vcan0 1C9#F462FF790FC0DA4C
(1691555717.464606) vcan0 1EA#2289BED1615E0383
(1691555717.466222) vcan0 326#D2FAD68263C6E86E
(1691555717.467812) vcan0 2E4#15EE258C5280FB02
(1691555717.469402) vcan0 106#D1F9F6E6436E8FCD
(1691555717.471016) vcan0 25F#C8E5564E1CA0CB46
(1691555717.472604) vcan0 364#EEC078F2C644935F
(1691555717.474217) vcan0 184#2917A92D89BC785C
(1691555717.686047) vcan0 3AA#7E0B7E18E8377448
(1691555717.687619) vcan0 3DF#A61B0B6325516016
(1691555717.689089) vcan0 365#93592086BB2815C4
(1691555717.690509) vcan0 294#ED1A7C98654081B7
(1691555717.691918) vcan0 13D#735D4AC7606DCDF2
(1691555717.693263) vcan0 1EC#B341904631238EBF
(1691555717.694657) vcan0 1E0#6CA4E399B1B13C67
(1691555717.696063) vcan0 378#7EB33DE8B6ABA9B1
(1691555717.697565) vcan0 2A1#C6DB6340107C7CDC
(1691555717.699045) vcan0 2B3#9EECFA39A3C41736
(1691555717.700519) vcan0 2ED#82D03447F5B31681
(1691555717.702034) vcan0 3A7#2AA82D75BB390245
(1691555717.703348) vcan0 18B#53CFF83E40578358
(1691555717.704657) vcan0 3B7#D610E3E13A87A0D8
(1691555717.706062) vcan0 11D#16231ABD38DFD764
(1691555717.707416) vcan0 2DF#31A2A99A9E0844B6
(1691555717.708755) vcan0 27B#3CE3C9842A5BFB8B
(1691555717.710235) vcan0 1C9#59D69B8035CB6E6F
(1691555717.711568) vcan0 1EA#C0E495F781293384
(1691555717.712940) vcan0 326#29188E175F9BDE9B
(1691555717.714461) vcan0 2E4#A557456C73307DBA
(1691555717.715778) vcan0 106#99C4C9B5DE9828F4
(1691555717.717193) vcan0 25F#A55C923A421830BF
(1691555717.718568) vcan0 364#5C55F533ED3E3B87
(1691555717.720009) vcan0 184#2E936C72CE491408
(1691555717.881320) vcan0 118#1CBE1F8228
(1691555717.882815) vcan0 167#6E418E543E
(1691555717.884284) vcan0 3B6#A4DA314627
(1691555717.885671) vcan0 2F7#7BD84E3B43
(1691555717.886985) vcan0 385#66A7E535AF
(1691555717.888288) vcan0 311#325F8B4E73
(1691555717.889583) vcan0 353#645BCC2346
(1691555717.890960) vcan0 111#E208F496BA
(1691555717.892280) vcan0 2AF#694DFDCAAA
(1691555717.893579) vcan0 341#FA91BE7083
(1691555717.895025) vcan0 274#DA704D7569
(1691555717.896386) vcan0 221#86761F7E61
(1691555717.897672) vcan0 1E8#DC4E9AE5A5
(1691555717.899065) vcan0 237#08A510B077
(1691555717.900369) vcan0 335#4775DE4A8C
(1691555717.901755) vcan0 29D#7D138195D9
(1691555717.903160) vcan0 360#60D3C0405F
(1691555717.904488) vcan0 10D#2F01795CC4
(1691555717.905985) vcan0 3E8#2F610C1F65
(1691555717.907320) vcan0 2C2#844FC5BB12
(1691555717.908642) vcan0 346#49EC08BE17
(1691555717.910031) vcan0 36F#9C22BD1407
(1691555717.911337) vcan0 2B4#9B5AE145FC
(1691555717.912648) vcan0 3E2#4BCFAEAFF2
(1691555717.914071) vcan0 205#57BF45EE3F
(1691555717.915373) vcan0 299#AE8BA8B8EE8EBBA3
(1691555717.935734) vcan0 3AA#9C15C24A751693F3
(1691555717.937167) vcan0 3DF#17B1830EB7063133
(1691555717.938584) vcan0 365#F2E2145B4F258E40
(1691555717.940007) vcan0 294#AD9A409FE64D1464
(1691555717.941446) vcan0 13D#5F26008931241A03
(1691555717.942853) vcan0 1EC#1B345992374E2264
(1691555717.944264) vcan0 1E0#FD7DB49A65BFFC59
(1691555717.945686) vcan0 378#421765B0673C3A41
(1691555717.947393) vcan0 2A1#BB78D1E6B1463616
(1691555717.948830) vcan0 2B3#F5341976E1543805
(1691555717.950278) vcan0 2ED#0944252DB975E3A8
(1691555717.951710) vcan0 3A7#D8E51CF7C2F6CD6F
(1691555717.953191) vcan0 18B#7731E5A85214BF9A
(1691555717.954594) vcan0 3B7#DEDF5417BEB14FF0
(1691555717.956026) vcan0 11D#41C1EB991675F135
(1691555717.957428) vcan0 2DF#B67405899FDE6D70
(1691555717.958829) vcan0 27B#BC0C54FEFF72E5FD
(1691555717.960249) vcan0 1C9#31AD3FE1DE46E841
(1691555717.961676) vcan0 1EA#F1786B97FA400EAD
(1691555717.963110) vcan0 326#C1A5EE5AC174E1DF
(1691555717.964551) vcan0 2E4#15F256D562F1587D
(1691555717.966003) vcan0 106#292430C1AB0F0F9C
(1691555717.967410) vcan0 25F#0471609023DDBBC3
(1691555717.968820) vcan0 364#D4A18C26D7BE134E
(1691555717.970258) vcan0 184#2D0B92DF471EDAD9
(1691555718.185885) vcan0 3AA#066330A4A80C47A3
(1691555718.187442) vcan0 3DF#FB5DE13929BDD9BA
(1691555718.188937) vcan0 365#720F31337EE06411
(1691555718.190351) vcan0 294#F321EDFE498411CD
(1691555718.191731) vcan0 13D#87E68CA59696EDC1
(1691555718.193126) vcan0 1EC#013A989E755C9D20
(1691555718.194483) vcan0 1E0#89EBD5942B9FF3A8
(1691555718.195921) vcan0 378#D51EC62996ED8147
(1691555718.197287) vcan0 2A1#E90318EEDCE84942
(1691555718.198634) vcan0 2B3#43D2DE7F4A67CF40
(1691555718.200083) vcan0 2ED#1F2E7F15A3BA8F01
(1691555718.201692) vcan0 3A7#126042EB8372DE63
(1691555718.203247) vcan0 18B#95AEEB84896C108D
(1691555718.204625) vcan0 3B7#790EFDE2FE3D1EAF
(1691555718.206082) vcan0 11D#4145C51A6EE9C842
(1691555718.207488) vcan0 2DF#62AA5937ECE03DC9
(1691555718.208935) vcan0 27B#BB499BEA3019323D
(1691555718.210361) vcan0 1C9#13E2754363075474
(1691555718.211892) vcan0 1EA#C70D899E5F114AA2
(1691555718.213275) vcan0 326#8BABC053A04806C3
(1691555718.214623) vcan0 2E4#38A2F0EA196C4158
(1691555718.216018) vcan0 106#20800C05C03CC237
(1691555718.217353) vcan0 25F#D531D3E126D9F474
(1691555718.218734) vcan0 364#B7356C3E575C58E7
(1691555718.220231) vcan0 184#C859F1808627FDF4
(1691555718.369819) vcan0 250#0000000000
(1691555718.371416) vcan0 251#0000000000
(1691555718.372891) vcan0 252#0000000000
(1691555718.374363) vcan0 253#0000000000
(1691555718.375781) vcan0 254#0000000000
(1691555718.381170) vcan0 118#456D95DA8B
(1691555718.382557) vcan0 167#7DAB0F54E8
(1691555718.383977) vcan0 3B6#B2991CE085
(1691555718.385446) vcan0 2F7#47E9DB7CBD
(1691555718.386847) vcan0 385#2062E40F9A
(1691555718.388191) vcan0 311#8D3E7E5675
(1691555718.389516) vcan0 353#27B07B2287
(1691555718.390962) vcan0 111#47BE154F8D
(1691555718.392345) vcan0 2AF#C29FEB293F
(1691555718.393674) vcan0 341#9438E53B5A
(1691555718.395111) vcan0 274#5A323A550D
(1691555718.396510) vcan0 221#CA05618A3F
(1691555718.397992) vcan0 1E8#0BE8C0BF0C
(1691555718.399342) vcan0 237#5367C90B27
(1691555718.400824) vcan0 335#DD877D121E
(1691555718.402297) vcan0 29D#A177FAA717
(1691555718.403641) vcan0 360#BDDF71FD62
(1691555718.405056) vcan0 10D#E8FE12408A
(1691555718.406408) vcan0 3E8#C8CD322131
(1691555718.407748) vcan0 2C2#516E953B79
(1691555718.409318) vcan0 346#6A77314313
(1691555718.410637) vcan0 36F#7355357F10
(1691555718.412024) vcan0 2B4#854F31D820
(1691555718.413372) vcan0 3E2#54475C5F1D
(1691555718.414684) vcan0 205#751884D96B
(1691555718.416045) vcan0 299#A8AAE2A2A8AEEB8E
(1691555718.435701) vcan0 3AA#42ED23484DB2F5C1
(1691555718.437237) vcan0 3DF#3F714F0C9203FC37
(1691555718.438746) vcan0 365#319C42E309A42816
(1691555718.440268) vcan0 294#109BFC0B3D9BC42C
(1691555718.441798) vcan0 13D#08DC210D4FB5F98E
(1691555718.443313) vcan0 1EC#C0B421C93DA848D0
(1691555718.444837) vcan0 1E0#ABE59AEE2C2DF5B8
(1691555718.446385) vcan0 378#3F4882BEEDB368F4
(1691555718.447903) vcan0 2A1#2ECF5F91F2574C32
(1691555718.449428) vcan0 2B3#B10F5880C0F30EDE
(1691555718.450989) vcan0 2ED#2A5A4F583856017D
(1691555718.452506) vcan0 3A7#00D2DF68DD223DB0
(1691555718.454030) vcan0 18B#B2FEDB31FA6E34E5
(1691555718.455571) vcan0 3B7#AE739AD0FD5FFBA9
(1691555718.457139) vcan0 11D#17F354D0DDFE8B2F
(1691555718.458665) vcan0 2DF#C34CEFF8F419D98D
(1691555718.460210) vcan0 27B#433138323D4A5DBA
(1691555718.461720) vcan0 1C9#1A41225C067A8DFC
(1691555718.463265) vcan0 1EA#42921AEA5367E4EB
(1691555718.464775) vcan0 326#6B881424D1D01CD0
(1691555718.466314) vcan0 2E4#611AC0C215EA6A65
(1691555718.467871) vcan0 106#F49A20BFF140A574
(1691555718.469400) vcan0 25F#D9191861BE2B0D6D
(1691555718.470992) vcan0 364#ED0014CC23783D45
(1691555718.472524) vcan0 184#F6366EA0E363651D
(1691555718.685910) vcan0 3AA#02893D177F8D37F8
(1691555718.687453) vcan0 3DF#AF3E0248DC3F373E
(1691555718.688886) vcan0 365#4A725E4CAB6673CD
(1691555718.690287) vcan0 294#ED755E09B113F953
(1691555718.691599) vcan0 13D#B1357EC636DB5FB1
(1691555718.693019) vcan0 1EC#FF8367C55F1C80FE
(1691555718.694338) vcan0 1E0#DEEC32BF4F1CB06B
(1691555718.695658) vcan0 378#BB090790D00AE6A0
(1691555718.697053) vcan0 2A1#734DF2F3B3043C0A
(1691555718.698464) vcan0 2B3#33FFCB8221EBF9F3
(1691555718.699761) vcan0 2ED#0382E0EAC02E74A5
(1691555718.701268) vcan0 3A7#68A5F78DDDBE68E1
(1691555718.702578) vcan0 18B#55DBC9A2F8B96BFE
(1691555718.703969) vcan0 3B7#0BF0E44931C54ADB
(1691555718.705310) vcan0 11D#214B90C4CC5DB998
(1691555718.706632) vcan0 2DF#7FD93B6503CEFA86
(1691555718.708059) vcan0 27B#A34BC43BC78C0FF5
(1691555718.709606) vcan0 1C9#EBC7BB70BB25F40F
(1691555718.711086) vcan0 1EA#08618FCE4FDE89CB
(1691555718.712417) vcan0 326#CAF50CE2D5A2838E
(1691555718.713729) vcan0 2E4#06C4EB710CDBA254
(1691555718.715118) vcan0 106#60A26A214C50F150
(1691555718.716433) vcan0 25F#34FF190133F3F454
(1691555718.717748) vcan0 364#BD498A0A041C5A38
(1691555718.719141) vcan0 184#CF9C8750F29242AD
(1691555718.881209) vcan0 118#D1CFA948CE
(1691555718.882709) vcan0 167#2DA55CC82F
(1691555718.884182) vcan0 3B6#D81441E6F9
(1691555718.885592) vcan0 2F7#2F188CD273
(1691555718.887007) vcan0 385#C489A65C2A
(1691555718.888322) vcan0 311#D8A0038D6F
(1691555718.889628) vcan0 353#B53EFDE5D7
(1691555718.891059) vcan0 111#5EF584CC29
(1691555718.892483) vcan0 2AF#C49CB46EE5
(1691555718.893931) vcan0 341#2937C10CC9
(1691555718.895450) vcan0 274#4DE520EF4D
(1691555718.897044) vcan0 221#6C8C2C3BFB
(1691555718.898412) vcan0 1E8#7545049E0D
(1691555718.899695) vcan0 237#AC7DCF6238
(1691555718.901185) vcan0 335#194E6A04FF
(1691555718.902485) vcan0 29D#FACA0EC040
(1691555718.903918) vcan0 360#5C8B1A7CF7
(1691555718.905225) vcan0 10D#AEFBA8E82A
(1691555718.906541) vcan0 3E8#B60AC68920
(1691555718.908005) vcan0 2C2#96DE4266E0
(1691555718.909327) vcan0 346#CFA1CAC014
(1691555718.910626) vcan0 36F#092FB3C7D0
(1691555718.912053) vcan0 2B4#A3E458BB9E
(1691555718.913363) vcan0 3E2#0B2F17D19F
(1691555718.914716) vcan0 205#9810BEF893
(1691555718.916275) vcan0 299#BB8EEEEE2B8BA2BB
(1691555718.935733) vcan0 3AA#077F42912B7D9C69
(1691555718.937171) vcan0 3DF#6185A10AC4E0F967
(1691555718.938575) vcan0 365#96E9E8A71C071676
(1691555718.940073) vcan0 294#D91909860EDE65EB
(1691555718.941438) vcan0 13D#2B073DF7138D6B48
(1691555718.942812) vcan0 1EC#0D275ED9927E67F5
(1691555718.944219) vcan0 1E0#7F52C9D8B13BF057
(1691555718.945596) vcan0 378#5699518383A96529
(1691555718.946973) vcan0 2A1#9A3EAEFF8852AF5D
(1691555718.948335) vcan0 2B3#FF555B2ED58E5751
(1691555718.949712) vcan0 2ED#39B07BF8E83340A9
(1691555718.951130) vcan0 3A7#58BC7CA61D95D77D
(1691555718.952507) vcan0 18B#6A8D465EBBDBC12E
(1691555718.953888) vcan0 3B7#CBCB3E38E3374A88
(1691555718.955275) vcan0 11D#367024D5C49C2DD0
(1691555718.956640) vcan0 2DF#B578CF8B8A463AD5
(1691555718.958029) vcan0 27B#9485D8D975A12FD5
(1691555718.959405) vcan0 1C9#F20B6A0F03B1B5CD
(1691555718.960784) vcan0 1EA#19E6EE2EC74E8600
(1691555718.962167) vcan0 326#0AE664E60C3E8ACE
(1691555718.963538) vcan0 2E4#DFB94C72AEB1EF4C
(1691555718.964948) vcan0 106#3BA794EA4D522728
(1691555718.966313) vcan0 25F#DD9B64E228FEF988
(1691555718.967700) vcan0 364#ED413DE104F04991
(1691555718.969076) vcan0 184#565A37D151076991
(1691555719.185900) vcan0 3AA#04FFDA9D405ED581
(1691555719.187440) vcan0 3DF#0A20D696AACB3E15
(1691555719.188903) vcan0 365#08267F73C718F14D
(1691555719.190335) vcan0 294#261D643F35D43F84
(1691555719.191696) vcan0 13D#1CBBB27721966722
(1691555719.193093) vcan0 1EC#1CAD4D6D771C1B6C
(1691555719.194468) vcan0 1E0#11CA8CEC35784BD3
(1691555719.195779) vcan0 378#F46741FFD0D70CF9
(1691555719.197211) vcan0 2A1#6E8784455805F337
(1691555719.198539) vcan0 2B3#39C0F53349024D24
(1691555719.199991) vcan0 2ED#722C261E865A71F5
(1691555719.201404) vcan0 3A7#ED8F16A2E5D51931
(1691555719.202839) vcan0 18B#119628CD5FDDAC8E
(1691555719.204184) vcan0 3B7#C3CC90A1AE8C8BEB
(1691555719.205518) vcan0 11D#FA0794046A23B253
(1691555719.206884) vcan0 2DF#6DC5ECD8BF8A24AA
(1691555719.208226) vcan0 27B#146A5FFAD01CC28B
(1691555719.209544) vcan0 1C9#C11B8E7CC2131B11
(1691555719.211023) vcan0 1EA#19E223539BCA98A4
(1691555719.212332) vcan0 326#C592601ACCBB3F0E
(1691555719.213650) vcan0 2E4#91A32D1BFF16DC9E
(1691555719.215057) vcan0 106#B38C5A2A80F623AC
(1691555719.216361) vcan0 25F#44D8AAA9AE711A6B
(1691555719.217693) vcan0 364#2ED23341A9FF5A95
(1691555719.219099) vcan0 184#6EF04AF47D3D23EE
(1691555719.369765) vcan0 250#FFC0FF7F1E
(1691555719.371404) vcan0 251#C0C0C3C030
(1691555719.372843) vcan0 252#FCC0FFCFC0
(1691555719.374286) vcan0 253#C0C0C3C330
(1691555719.375668) vcan0 254#C0FFC37E1E
(1691555719.381156) vcan0 118#DD1AD8EBD6
(1691555719.382496) vcan0 167#63E2A58D2E
(1691555719.383961) vcan0 3B6#8C9740ED81
(1691555719.385260) vcan0 2F7#DB8C4E29BE
(1691555719.386563) vcan0 385#D8013C19C0
(1691555719.388041) vcan0 311#FFC57EA9F9
(1691555719.389358) vcan0 353#5B449C064F
(1691555719.390711) vcan0 111#41874AFE26
(1691555719.392105) vcan0 2AF#2516442372
(1691555719.393451) vcan0 341#73B5EC21A0
(1691555719.394739) vcan0 274#DF11BEE1B7
(1691555719.396152) vcan0 221#625B51EBE3
(1691555719.397490) vcan0 1E8#981054BD20
(1691555719.398847) vcan0 237#37106B6EBA
(1691555719.400221) vcan0 335#15A5DDEA55
(1691555719.401614) vcan0 29D#6CAE2BA57A
(1691555719.403162) vcan0 360#6AF359C7AB
(1691555719.404483) vcan0 10D#EE3F5CD7BA
(1691555719.405848) vcan0 3E8#18D2032027
(1691555719.407182) vcan0 2C2#167459EF5B
(1691555719.408542) vcan0 346#89BA456E09
(1691555719.409976) vcan0 36F#0DABF7D0FE
(1691555719.411294) vcan0 2B4#F991EED678
(1691555719.412626) vcan0 3E2#9AAC91D3AC
(1691555719.414082) vcan0 205#46EF4D2060
(1691555719.415438) vcan0 299#AE3BAA2A2BBAE2AB
(1691555719.435778) vcan0 3AA#D211F6DC476B40BD
(1691555719.437251) vcan0 3DF#AF61325B55F3FB4F
(1691555719.438658) vcan0 365#BA4D3443FAC46428
(1691555719.440095) vcan0 294#EAE3BB6D98F123AD
(1691555719.441495) vcan0 13D#D7E81A4AE3CFDF1C
(1691555719.442922) vcan0 1EC#FBEBC8E43F32AE1B
(1691555719.444337) vcan0 1E0#188ADF68C9AD34A2
(1691555719.445755) vcan0 378#29398297C446F141
(1691555719.447175) vcan0 2A1#E8E4A96B4B8BB09C
(1691555719.448581) vcan0 2B3#B57AB5F46E391A9B
(1691555719.449987) vcan0 2ED#5BA0B532B21006D7
(1691555719.451433) vcan0 3A7#73E3C79C426363E1
(1691555719.452859) vcan0 18B#BE699CB1CB9F1BD1
(1691555719.454256) vcan0 3B7#5B2827415A92BFC5
(1691555719.455856) vcan0 11D#D4221AACB65746CD
(1691555719.457264) vcan0 2DF#3B68CA2D3150EE3E
(1691555719.458697) vcan0 27B#1B9FE77387AC29EA
(1691555719.460142) vcan0 1C9#6C1B5A501000B81B
(1691555719.461557) vcan0 1EA#F08EE5C739114485
(1691555719.462974) vcan0 326#50789A0B7EB49BFC
(1691555719.464390) vcan0 2E4#8EBB15B69B045D74
(1691555719.465851) vcan0 106#F0B40A6843DC122B
(1691555719.467258) vcan0 25F#C8DEAE46276FACCC
(1691555719.468672) vcan0 364#DC3980794EC4E3FB
(1691555719.470097) vcan0 184#5A40C9E11F286968
(1691555719.685835) vcan0 3AA#5B3AB06C6062A914
(1691555719.687406) vcan0 3DF#0DB0BE15FB839EE3
(1691555719.688835) vcan0 365#FE3094B1E5227F7E
(1691555719.690268) vcan0 294#A521FE943C6C03A1
(1691555719.691580) vcan0 13D#3161A187E3867EF5
(1691555719.692921) vcan0 1EC#1CEE5BC1D177BFDF
(1691555719.694294) vcan0 1E0#7E1342279F5F7C06
(1691555719.695641) vcan0 378#2E9923AC3E721F65
(1691555719.697032) vcan0 2A1#F4553B0A42E744E3
(1691555719.698501) vcan0 2B3#8201D6983152B1BB
(1691555719.699881) vcan0 2ED#4F8F26CFA36DDE64
(1691555719.701240) vcan0 3A7#86958E193EB6251B
(1691555719.702609) vcan0 18B#3E4941206BEFBA65
(1691555719.704043) vcan0 3B7#5489B3B11D511C4A
(1691555719.705428) vcan0 11D#2BB9E1FC647F763C
(1691555719.706746) vcan0 2DF#16D09D2F03F9FF1D
(1691555719.708129) vcan0 27B#5F309B0E3FF39B4F
(1691555719.709491) vcan0 1C9#2BDD542C5A2FF613
(1691555719.710959) vcan0 1EA#7C230D827F897683
(1691555719.712262) vcan0 326#E23B396E432FA038
(1691555719.713585) vcan0 2E4#47B712203BE2244B
(1691555719.715057) vcan0 106#02C50A7AEDD2CA5E
(1691555719.716354) vcan0 25F#7BB02714882A620D
(1691555719.717704) vcan0 364#1F41AF197A228900
(1691555719.719106) vcan0 184#EEEE993FE3F5E922
(1691555719.881146) vcan0 118#1B98EB39F7
(1691555719.882650) vcan0 167#4D34039864
(1691555719.884117) vcan0 3B6#7A6C312BEA
(1691555719.885529) vcan0 2F7#5483E0DCE0
(1691555719.886981) vcan0 385#202D4C3CD2
(1691555719.888276) vcan0 311#31DA0279BD
(1691555719.889580) vcan0 353#A4445F95F6
(1691555719.890973) vcan0 111#DE261C2C8C
(1691555719.892291) vcan0 2AF#8AE01C7E83
(1691555719.893634) vcan0 341#3D08991607
(1691555719.895056) vcan0 274#0D8D60C839
(1691555719.896421) vcan0 221#BD6B1E5F89
(1691555719.898003) vcan0 1E8#54C5391C9D
(1691555719.899399) vcan0 237#7675DFA3F2
(1691555719.900916) vcan0 335#7A0532BC19
(1691555719.902311) vcan0 29D#55C49D6808
(1691555719.903654) vcan0 360#920E5A53D9
(1691555719.905061) vcan0 10D#C125A459EB
(1691555719.906420) vcan0 3E8#06DC12692B
(1691555719.907903) vcan0 2C2#03BB70BCC5
(1691555719.909317) vcan0 346#B279C957C5
(1691555719.910673) vcan0 36F#D867140B84
(1691555719.912130) vcan0 2B4#162E322032
(1691555719.913610) vcan0 3E2#98FA4ED4FF
(1691555719.915024) vcan0 205#DEA20216A0
(1691555719.916455) vcan0 299#8E8EA2BBAE3A8EEE
(1691555719.935747) vcan0 3AA#43EF3B245BECE31B
(1691555719.937210) vcan0 3DF#CA635DDF9489D218
(1691555719.938615) vcan0 365#3A3969D82BCA57B0
(1691555719.940021) vcan0 294#06F32973BF5CC422
(1691555719.941437) vcan0 13D#A6A3912C65B867CF
(1691555719.942866) vcan0 1EC#E753437500C86104
(1691555719.944260) vcan0 1E0#3BB65BD029FE77E7
(1691555719.945658) vcan0 378#9770DBDB907052EF
(1691555719.947080) vcan0 2A1#76F8E10FC248A742
(1691555719.948520) vcan0 2B3#4D1E2AEB9A1B9A4A
(1691555719.949927) vcan0 2ED#86EC0D563915D153
(1691555719.951351) vcan0 3A7#72461480EC6644ED
(1691555719.952758) vcan0 18B#D48CAA499403CE69
(1691555719.954133) vcan0 3B7#F1B0E53F519AA0E3
(1691555719.955526) vcan0 11D#53F548501404A5CE
(1691555719.957001) vcan0 2DF#72C182D5585A0A10
(1691555719.958407) vcan0 27B#5721DFD632EDD4DF
(1691555719.959824) vcan0 1C9#3DEE0485CDAEEF16
(1691555719.961218) vcan0 1EA#316939D125CC857E
(1691555719.962621) vcan0 326#CC03CD919490BD50
(1691555719.964040) vcan0 2E4#B31A13B02C481862
(1691555719.965438) vcan0 106#785EF247CB315B37
(1691555719.966879) vcan0 25F#5A76665184F70D0D
(1691555719.968275) vcan0 364#0CDE734334F68F0E
(1691555719.969669) vcan0 184#785C836A7BCF06D9
(1691555720.185877) vcan0 3AA#87B8533E019645DA
(1691555720.187438) vcan0 3DF#1C61673A73B59421
(1691555720.188884) vcan0 365#59CB79110FE5E72D
(1691555720.190323) vcan0 294#C20764E54F0F597D
(1691555720.191667) vcan0 13D#D490A20C8CF5B190
(1691555720.193061) vcan0 1EC#A1BD8FEC59D65030
(1691555720.194427) vcan0 1E0#DB8F1670920B8FDD
(1691555720.195813) vcan0 378#782DE312AAB6477D
(1691555720.197215) vcan0 2A1#0CE4FEC8A024FFFD
(1691555720.198575) vcan0 2B3#1E4FF3B0B8D7CE85
(1691555720.199993) vcan0 2ED#F66E527E6B5B1291
(1691555720.201486) vcan0 3A7#5986F0756372446B
(1691555720.202863) vcan0 18B#1B03936909F652B4
(1691555720.204297) vcan0 3B7#9DA99BA45A0C8C4E
(1691555720.205662) vcan0 11D#62319BBA14E64E39
(1691555720.207063) vcan0 2DF#13A0DDBCFB4DF939
(1691555720.208444) vcan0 27B#1DFC04B61C710B6F
(1691555720.209916) vcan0 1C9#F57C3162BCCEE8AF
(1691555720.211261) vcan0 1EA#894B5BF0FFED9271
(1691555720.212636) vcan0 326#47168651B8B2801D
(1691555720.214028) vcan0 2E4#39586BC347DB7564
(1691555720.215435) vcan0 106#02801A45470E94D7
(1691555720.216891) vcan0 25F#3C52ED4C28866124
(1691555720.218323) vcan0 364#883C6A2CE3160BD0
(1691555720.219715) vcan0 184#549622439175C06C
(1691555720.369755) vcan0 250#0000000000
(1691555720.371420) vcan0 251#0000000000
(1691555720.372863) vcan0 252#0000000000
(1691555720.374304) vcan0 253#0000000000
(1691555720.375703) vcan0 254#0000000000
(1691555720.380930) vcan0 118#348AEF8C41
(1691555720.382297) vcan0 167#1179EF38F0
(1691555720.383657) vcan0 3B6#386B71A698
(1691555720.384995) vcan0 2F7#CD7452185E
(1691555720.386350) vcan0 385#9169839A39
(1691555720.387670) vcan0 311#40CCAF5FF5
(1691555720.389095) vcan0 353#2008B92A4B
(1691555720.390476) vcan0 111#1B7FF91DDE
(1691555720.391869) vcan0 2AF#5312696361
(1691555720.393203) vcan0 341#516C43CC68
(1691555720.394553) vcan0 274#4A4611DC4B
(1691555720.395993) vcan0 221#EDE1F4F3F8
(1691555720.397348) vcan0 1E8#26E66300F0
(1691555720.398668) vcan0 237#1F168760A7
(1691555720.400101) vcan0 335#FB0DE9A72F
(1691555720.401540) vcan0 29D#D023A1EABA
(1691555720.402981) vcan0 360#EA8A4351C3
(1691555720.404381) vcan0 10D#778471E19E
(1691555720.405731) vcan0 3E8#7C4B5E8B9E
(1691555720.407140) vcan0 2C2#3B30D4EA16
(1691555720.408522) vcan0 346#DA3E3F7221
(1691555720.410010) vcan0 36F#24AD31BCCC
(1691555720.411365) vcan0 2B4#3133029115
(1691555720.412701) vcan0 3E2#A41E2EFD17
(1691555720.414140) vcan0 205#D6EFCED4DA
(1691555720.415486) vcan0 299#EE3BAA2BBAE3AEE3
(1691555720.435740) vcan0 3AA#A7A84204640E882C
(1691555720.437354) vcan0 3DF#B92ABD251B7E1652
(1691555720.439227) vcan0 365#4B8D575FDDA0DE6E
(1691555720.440830) vcan0 294#1319BF52C2B6178D
(1691555720.442423) vcan0 13D#8BD5AD6075F41C44
(1691555720.444042) vcan0 1EC#2A2A496EA4AE24C2
(1691555720.445666) vcan0 1E0#553C5A5C3D3163F7
(1691555720.447475) vcan0 378#6D6979C582ADC414
(1691555720.449293) vcan0 2A1#3EC4237BA7B0A798
(1691555720.451069) vcan0 2B3#0A6CF5A2DA294B3E
(1691555720.452887) vcan0 2ED#DCF468AF2C507588
(1691555720.454487) vcan0 3A7#39C5BF546E10DBB5
(1691555720.456070) vcan0 18B#FB09C8CF3BA6B089
(1691555720.457711) vcan0 3B7#C0019B5E0D055530
(1691555720.459315) vcan0 11D#384D8E02D52BBEB2
(1691555720.460958) vcan0 2DF#BA99F21A5E160468
(1691555720.462537) vcan0 27B#1275491F9EA6FF93
(1691555720.464139) vcan0 1C9#60F338209D6AA21B
(1691555720.465737) vcan0 1EA#AFFD5FB913B0B609
(1691555720.467310) vcan0 326#FF0F248C740CC9C4
(1691555720.468941) vcan0 2E4#F90CC7FF9C635B41
(1691555720.470541) vcan0 106#A4D4AA82D29A2AEB
(1691555720.472126) vcan0 25F#745B133FAA368E9E
(1691555720.473766) vcan0 364#2AEB3487764704C0
(1691555720.475347) vcan0 184#EBD5BA686CC16CAE
(1691555720.685887) vcan0 3AA#D25FF15FEF2EF46B
(1691555720.687431) vcan0 3DF#54E0D9093CCA044B
(1691555720.688897) vcan0 365#FCD86E437F8B9AEF
(1691555720.690329) vcan0 294#13DBB71C6DE45856
(1691555720.691670) vcan0 13D#A72FB5B95552CCB5
(1691555720.693048) vcan0 1EC#491B8863EE12C7E1
(1691555720.694418) vcan0 1E0#0A936A78BDF55CCB
(1691555720.695880) vcan0 378#2606A338B081C508
(1691555720.697311) vcan0 2A1#63217E56C50D2892
(1691555720.698884) vcan0 2B3#1013A5234EF9B9A3
(1691555720.700224) vcan0 2ED#347202A9C70EAEFB
(1691555720.701692) vcan0 3A7#F0BEA6E077F24CFE
(1691555720.703064) vcan0 18B#CD346F601F797F52
(1691555720.704434) vcan0 3B7#AA0EB20005AB9922
(1691555720.705870) vcan0 11D#9DC63039872A1EA7
(1691555720.707225) vcan0 2DF#5A5E778EBCD40815
(1691555720.708552) vcan0 27B#1A46508F0D094B58
(1691555720.709930) vcan0 1C9#0913E12CF69CF445
(1691555720.711265) vcan0 1EA#1ABBDFECC7B5B604
(1691555720.712607) vcan0 326#6E1E2D2C5214C4E8
(1691555720.714105) vcan0 2E4#F1D06C642AE32C2B
(1691555720.715497) vcan0 106#FB1564D72496DFF4
(1691555720.716945) vcan0 25F#85F9A7C854CD643E
(1691555720.718448) vcan0 364#48BFF88696BFA7CF
(1691555720.719901) vcan0 184#911C934E44C90D5F
(1691555720.881041) vcan0 118#EEABAE08F4
(1691555720.882426) vcan0 167#28CCF84265
(1691555720.883775) vcan0 3B6#B5BE4A9A9C
(1691555720.885108) vcan0 2F7#FD572C333E
(1691555720.886508) vcan0 385#B996267CF3
(1691555720.887929) vcan0 311#BFC29CC88B
(1691555720.889255) vcan0 353#24D28447A5
(1691555720.890597) vcan0 111#A166F8395F
(1691555720.892067) vcan0 2AF#5BED460AFB
(1691555720.893446) vcan0 341#C5C984FAF6
(1691555720.894758) vcan0 274#16E42D0322
(1691555720.896205) vcan0 221#E717E10835
(1691555720.897581) vcan0 1E8#599817D204
(1691555720.899007) vcan0 237#7E9FA6C339
(1691555720.900395) vcan0 335#9146AAB3CC
(1691555720.901905) vcan0 29D#C103474F58
(1691555720.903264) vcan0 360#F6512937EA
(1691555720.904617) vcan0 10D#5621E637D4
(1691555720.906065) vcan0 3E8#6730CAC368
(1691555720.907419) vcan0 2C2#FF0DBC2893
(1691555720.908738) vcan0 346#28E15ACAC9
(1691555720.910093) vcan0 36F#C9B78B9182
(1691555720.911436) vcan0 2B4#FC0360F8F8
(1691555720.912782) vcan0 3E2#498847CBCA
(1691555720.914281) vcan0 205#F588953A28
(1691555720.915657) vcan0 299#BB8AE2E8AEEB8BBB
(1691555720.935574) vcan0 3AA#34993E47CBA6F3B6
(1691555720.937255) vcan0 3DF#6FA6B8042B1B95BF
(1691555720.938596) vcan0 365#945FBD0EB57272CF
(1691555720.940006) vcan0 294#73DFD062A86E1FD4
(1691555720.941360) vcan0 13D#2C7AA1A4BCF80CB2
(1691555720.942699) vcan0 1EC#8ABFF293EEA076CF
(1691555720.944098) vcan0 1E0#43B477FBA1B62407
(1691555720.945430) vcan0 378#A48E3F3107756BD1
(1691555720.946773) vcan0 2A1#6481FB2B0DEE772F
(1691555720.948171) vcan0 2B3#FB7B5A071BA6C5F8
(1691555720.949516) vcan0 2ED#16AA6BA4E59BC254
(1691555720.950938) vcan0 3A7#85822F2A56969BB3
(1691555720.952350) vcan0 18B#F065DC96E60B7A7B
(1691555720.953692) vcan0 3B7#6CF242B35D1FB568
(1691555720.955127) vcan0 11D#1E70E8D1AAE1B5F9
(1691555720.956503) vcan0 2DF#138EE6E821D5DCCF
(1691555720.957916) vcan0 27B#4D66557296F7AE30
(1691555720.959297) vcan0 1C9#7987ED222CE1EEB5
(1691555720.960699) vcan0 1EA#8CD3CC3C51B0CA0B
(1691555720.962121) vcan0 326#CE6CB5C3248A6D84
(1691555720.963496) vcan0 2E4#3EEF3648E824C17A
(1691555720.964879) vcan0 106#128C558E1D2D3870
(1691555720.966256) vcan0 25F#5BD557E901B3AB88
(1691555720.967596) vcan0 364#8F457E89CE1FF4FC
(1691555720.968981) vcan0 184#CE356E9B0624F5FE
(1691555721.185718) vcan0 3AA#027AFE2E02572BEC
(1691555721.187290) vcan0 3DF#6F527CB5F388BBE9
(1691555721.188616) vcan0 365#82B41057273E5DED
(1691555721.189979) vcan0 294#C6950D810B3A9EBD
(1691555721.191298) vcan0 13D#56607E56B8446944
(1691555721.192640) vcan0 1EC#0948A70DA5BE1DA6
(1691555721.194018) vcan0 1E0#FBDDA489F590C6BE
(1691555721.195365) vcan0 378#B37BEE4B733AC96E
(1691555721.196684) vcan0 2A1#96FC3CA292C4B3CC
(1691555721.198089) vcan0 2B3#69F2CB26C87EC5A2
(1691555721.199452) vcan0 2ED#09266D342BBD5FE6
(1691555721.200942) vcan0 3A7#26CCD122D94F3D7A
(1691555721.202294) vcan0 18B#3E287FE7C651D745
(1691555721.203620) vcan0 3B7#D02E5EE6DA1F1AFB
(1691555721.205041) vcan0 11D#DEC7162E9FC0FD8A
(1691555721.206372) vcan0 2DF#BEC7F56C0E33854E
(1691555721.207697) vcan0 27B#C48CEC0641FB6870
(1691555721.209081) vcan0 1C9#F2B4112F5CF3972B
(1691555721.210413) vcan0 1EA#D3464A709680F250
(1691555721.211735) vcan0 326#77716B2850B57686
(1691555721.213087) vcan0 2E4#9350B6919F651FFE
(1691555721.214494) vcan0 106#7577AC3B506949BF
(1691555721.215844) vcan0 25F#BF457351544B5E11
(1691555721.217239) vcan0 364#D2690AFBA71917D6
(1691555721.218576) vcan0 184#8233240F0EA92E0A
(1691555721.369538) vcan0 250#7F3EC300C3
(1691555721.371110) vcan0 251#C066E30066
(1691555721.372473) vcan0 252#C0FFDB0018
